! TOUCHSTONE file generated by CST MICROWAVE STUDIO
! Date and time: Sun Mar  9 22:32:17 2025
! Project name: Mas_optimizable_C_dobleP.cst
! Parameters = {Lc4=5.13164; Cz=-21.3846; H=17; Hbl=8.88143; Hbt=5; Hl=7.58026; Hposte=4.23344; Hposte2=2.90011; Ht=10.006; L=2; Lb1=2; Lb2=3.40895; Lc1=5.22891; Lc2=1.15568; Lc3=0.1; Ldielectrico=9.906; Lextra=8.382; Lextra2=12.446; Lp1=7; Lp2=8; Lp3=2; Pb2=0; Rposte=0.9; Rposte2=0.816232; W=34; W2=33.659; Wb=34; aux_p1=3.5; aux_p2=-12.7289; despx=0; dxposte=0; dxposte2=0; opcion=1; posb=-25.4846; target=-29; thickness=2}
! Header version: 2018
! Port assignment regex: !\s*Touchstone port\s*([0-9]+)\s*=\s*(CST MWS port|CST DS port)\s*([0-9]+|Zmin|Zmax)\s*\(\"(.*)\"\)(\s*mode\s*([0-9]+))?.*
! Touchstone port assignment:
! Touchstone port 1 = CST MWS port 1 ("")
! Touchstone port 2 = CST MWS port 2 ("")
! Default impedance is overridden by [Reference]
[Version] 2.0
# GHz S MA R 48.1975
[Number of Ports] 2
[Two-Port Data Order] 21_12
[Reference]
48.1975 566.211 
[Number of Frequencies] 5001
[Network Data]
4.5                  0.903601312      61.8339215      0.427671802     -46.9033791      0.427671752     -46.9033813      0.903892897      24.3626693
4.501                0.903187025      61.7066688      0.428536763     -47.0443068      0.428536711       -47.04431       0.90363632      24.2462913
4.502                0.902770031      61.5793972      0.429402079     -47.1849197      0.429402025     -47.1849239      0.903373121      24.1288051
4.503                 0.90235037      61.4521052      0.430267865     -47.3252301      0.430267809     -47.3252354      0.903103362      24.0102418
4.504                0.901928084      61.3247915       0.43113423     -47.4652501      0.431134171     -47.4652566      0.902827109      23.8906311
4.505                0.901503212      61.1974546      0.432001276     -47.6049919      0.432001214     -47.6049995      0.902544423      23.7700018
4.506                 0.90107579       61.070093      0.432869101     -47.7444673      0.432869035      -47.744476       0.90225537      23.6483815
4.507                0.900645856      60.9427054      0.433737797      -47.883688      0.433737727      -47.883698      0.901960014      23.5257969
4.508                0.900213444      60.8152901      0.434607454     -48.0226658      0.434607379     -48.0226771      0.901658419      23.4022737
4.509                0.899778589      60.6878458      0.435478153     -48.1614122      0.435478073     -48.1614247      0.901350648      23.2778368
4.51                 0.899341323      60.5603709      0.436349973     -48.2999383      0.436349888     -48.2999522      0.901036766      23.1525099
4.511                0.898901677       60.432864       0.43722299     -48.4382555      0.437222899     -48.4382708      0.900716836      23.0263163
4.512                0.898459683      60.3053235      0.438097274     -48.5763748      0.438097177     -48.5763914      0.900390922      22.8992781
4.513                0.898015368       60.177748      0.438972892     -48.7143069      0.438972788     -48.7143249      0.900059087      22.7714169
4.514                0.897568761      60.0501359      0.439849906     -48.8520625      0.439849796      -48.852082      0.899721394      22.6427533
4.515                0.897119889      59.9224858      0.440728377     -48.9896522       0.44072826     -48.9896731      0.899377905      22.5133073
4.516                0.896668776      59.7947961       0.44160836     -49.1270863      0.441608235     -49.1271087      0.899028683      22.3830982
4.517                0.896215449      59.6670654      0.442489908     -49.2643749      0.442489776     -49.2643988      0.898673788      22.2521447
4.518                0.895759929      59.5392921      0.443373071     -49.4015281      0.443372931     -49.4015534      0.898313282      22.1204647
4.519                 0.89530224      59.4114748      0.444257896     -49.5385555      0.444257747     -49.5385824      0.897947225      21.9880756
4.52                 0.894842402      59.2836119      0.445144425     -49.6754669      0.445144268     -49.6754953      0.897575678      21.8549942
4.521                0.894380435       59.155702      0.446032702     -49.8122717      0.446032535     -49.8123017      0.897198699      21.7212366
4.522                0.893916359      59.0277436      0.446922763     -49.9489791      0.446922587     -49.9490107      0.896816347      21.5868186
4.523                0.893450191      58.8997353      0.447814644     -50.0855983      0.447814459     -50.0856314      0.896428681      21.4517552
4.524                0.892981949      58.7716755       0.44870838     -50.2221382      0.448708185     -50.2221729      0.896035757       21.316061
4.525                0.892511649      58.6435629      0.449604001     -50.3586074      0.449603796     -50.3586437      0.895637634      21.1797501
4.526                0.892039305       58.515396      0.450501536     -50.4950146      0.450501321     -50.4950524      0.895234366      21.0428361
4.527                0.891564932      58.3871735      0.451401012      -50.631368      0.451400786     -50.6314075       0.89482601      20.9053323
4.528                0.891088543      58.2588938      0.452302453      -50.767676      0.452302217     -50.7677171       0.89441262      20.7672513
4.529                0.890610151      58.1305556      0.453205882     -50.9039466      0.453205635     -50.9039893       0.89399425      20.6286054
4.53                 0.890129766      58.0021575       0.45411132     -51.0401875      0.454111063     -51.0402318      0.893570954      20.4894066
4.531                0.889647399      57.8736983      0.455018787     -51.1764065      0.455018518     -51.1764524      0.893142785      20.3496663
4.532                0.889163061      57.7451764      0.455928298      -51.312611      0.455928018     -51.3126586      0.892709794      20.2093956
4.533                 0.88867676      57.6165906      0.456839871     -51.4488085      0.456839579     -51.4488577      0.892272033      20.0686053
4.534                0.888188504      57.4879396      0.457753518      -51.585006      0.457753214     -51.5850568      0.891829552      19.9273057
4.535                  0.8876983       57.359222      0.458669253     -51.7212106      0.458668937      -51.721263      0.891382401      19.7855069
4.536                0.887206155      57.2304367      0.459587087     -51.8574291      0.459586758     -51.8574831      0.890930629      19.6432185
4.537                0.886712076      57.1015823      0.460507028     -51.9936681      0.460506687     -51.9937238      0.890474285      19.5004501
4.538                0.886216067      56.9726576      0.461429086     -52.1299343      0.461428733     -52.1299916      0.890013417      19.3572105
4.539                0.885718132      56.8436615      0.462353268     -52.2662339      0.462352901     -52.2662928       0.88954807      19.2135087
4.54                 0.885218276      56.7145926      0.463279578     -52.4025731      0.463279199     -52.4026336      0.889078292      19.0693531
4.541                0.884716501      56.5854498      0.464208023     -52.5389579      0.464207631       -52.53902      0.888604127      18.9247519
4.542                0.884212811      56.4562321      0.465138605     -52.6753943        0.4651382      -52.675458      0.888125621       18.779713
4.543                0.883707206      56.3269381      0.466071327      -52.811888      0.466070908     -52.8119533      0.887642818      18.6342441
4.544                0.883199689      56.1975669       0.46700619     -52.9484445      0.467005758     -52.9485114      0.887155761      18.4883527
4.545                 0.88269026      56.0681173      0.467943195     -53.0850693      0.467942749     -53.0851378      0.886664493      18.3420458
4.546                0.882178919      55.9385883      0.468882341     -53.2217676      0.468881882     -53.2218377      0.886169055      18.1953305
4.547                0.881665665      55.8089788      0.469823627     -53.3585447      0.469823154     -53.3586163      0.885669489      18.0482134
4.548                0.881150499      55.6792878      0.470767051     -53.4954055      0.470766563     -53.4954787      0.885165835      17.9007011
4.549                0.880633418      55.5495142      0.471712609     -53.6323549      0.471712107     -53.6324296      0.884658134      17.7527998
4.55                  0.88011442      55.4196572      0.472660297     -53.7693976      0.472659781     -53.7694739      0.884146424      17.6045155
4.551                0.879593504      55.2897158      0.473610111     -53.9065382      0.473609581      -53.906616      0.883630744      17.4558543
4.552                0.879070667       55.159689      0.474562046     -54.0437813      0.474561502     -54.0438606      0.883111131      17.3068216
4.553                0.878545904      55.0295759      0.475516096      -54.181131      0.475515537     -54.1812118      0.882587624      17.1574231
4.554                0.878019214      54.8993756      0.476472253     -54.3185917       0.47647168      -54.318674      0.882060258       17.007664
4.555                 0.87749059      54.7690874      0.477430512     -54.4561673      0.477429924     -54.4562511       0.88152907      16.8575495
4.556                 0.87696003      54.6387102      0.478390863      -54.593862       0.47839026     -54.5939473      0.880994094      16.7070845
4.557                0.876427528      54.5082434      0.479353298     -54.7316795      0.479352681     -54.7317662      0.880455366      16.5562738
4.558                0.875893079      54.3776861      0.480317809     -54.8696235      0.480317177     -54.8697117      0.879912919      16.4051221
4.559                0.875356678      54.2470375      0.481284387     -55.0076977      0.481283739     -55.0077874      0.879366786      16.2536338
4.56                 0.874818318       54.116297       0.48225302     -55.1459056      0.482252358     -55.1459966      0.878817001      16.1018133
4.561                0.874277994      53.9854638      0.483223699     -55.2842505      0.483223022     -55.2843429      0.878263595      15.9496648
4.562                0.873735699      53.8545371      0.484196413     -55.4227357      0.484195721     -55.4228296        0.8777066      15.7971922
4.563                0.873191426      53.7235164      0.485171151     -55.5613644      0.485170444     -55.5614597      0.877146047      15.6443996
4.564                0.872645169       53.592401      0.486147901     -55.7001397      0.486147178     -55.7002363      0.876581967      15.4912907
4.565                0.872096919      53.4611902      0.487126651     -55.8390644      0.487125913     -55.8391624      0.876014389      15.3378692
4.566                 0.87154667      53.3298834      0.488107389     -55.9781416      0.488106636     -55.9782409      0.875443342      15.1841385
4.567                0.870994414        53.19848      0.489090102     -56.1173739      0.489089334     -56.1174745      0.874868855      15.0301021
4.568                0.870440143      53.0669796      0.490074778      -56.256764      0.490073994      -56.256866      0.874290957      14.8757634
4.569                0.869883849      52.9353815      0.491061402     -56.3963145      0.491060603     -56.3964177      0.873709674      14.7211254
4.57                 0.869325522      52.8036852      0.492049962     -56.5360278      0.492049147     -56.5361324      0.873125034      14.5661912
4.571                0.868765156      52.6718903      0.493040443     -56.6759064      0.493039613     -56.6760123      0.872537063      14.4109638
4.572                 0.86820274      52.5399962      0.494032832     -56.8159526      0.494031987     -56.8160597      0.871945788      14.2554461
4.573                0.867638266      52.4080026      0.495027114     -56.9561686      0.495026253     -56.9562769      0.871351233      14.0996408
4.574                0.867071725      52.2759089      0.496023275     -57.0965565      0.496022399     -57.0966661      0.870753424      13.9435507
4.575                0.866503108      52.1437148        0.4970213     -57.2371183      0.497020408     -57.2372291      0.870152385      13.7871781
4.576                0.865932405        52.01142      0.498021175     -57.3778561      0.498020267     -57.3779681       0.86954814      13.6305258
4.577                0.865359607      51.8790239      0.499022883     -57.5187718       0.49902196     -57.5188849      0.868940713      13.4735959
4.578                0.864784704      51.7465264      0.500026411      -57.659867      0.500025472     -57.6599814      0.868330127      13.3163909
4.579                0.864207687       51.613927      0.501031742     -57.8011437      0.501030788     -57.8012592      0.867716403       13.158913
4.58                 0.863628546      51.4812255      0.502038861     -57.9426035      0.502037892     -57.9427201      0.867099565      13.0011643
4.581                 0.86304727      51.3484216      0.503047753     -58.0842479      0.503046768     -58.0843656      0.866479634      12.8431469
4.582                 0.86246385       51.215515      0.504058401     -58.2260784        0.5040574     -58.2261973       0.86585663      12.6848628
4.583                0.861878276      51.0825055       0.50507079     -58.3680967      0.505069774     -58.3682166      0.865230575      12.5263138
4.584                0.861290538      50.9493929      0.506084904      -58.510304      0.506083872      -58.510425       0.86460149      12.3675019
4.585                0.860700625       50.816177      0.507100726     -58.6527016      0.507099679     -58.6528237      0.863969392      12.2084287
4.586                0.860108527      50.6828576      0.508118241     -58.7952909      0.508117179      -58.795414      0.863334304      12.0490961
4.587                0.859514235      50.5494344      0.509137432      -58.938073      0.509136355     -58.9381972      0.862696242      11.8895056
4.588                0.858917737      50.4159075      0.510158284     -59.0810491       0.51015719     -59.0811743      0.862055226      11.7296589
4.589                0.858319023      50.2822767      0.511180779     -59.2242203       0.51117967     -59.2243465      0.861411274      11.5695574
4.59                 0.857718083      50.1485418      0.512204901     -59.3675876      0.512203777     -59.3677148      0.860764404      11.4092027
4.591                0.857114907      50.0147028      0.513230634      -59.511152      0.513229494     -59.5112801      0.860114633       11.248596
4.592                0.856509484      49.8807596      0.514257961     -59.6549143      0.514256806     -59.6550434      0.859461979      11.0877388
4.593                0.855901803      49.7467121      0.515286865     -59.7988756      0.515285695     -59.7990055      0.858806457      10.9266323
4.594                0.855291855      49.6125604      0.516317331     -59.9430365      0.516316146     -59.9431674      0.858148085      10.7652779
4.595                0.854679629      49.4783043      0.517349341     -60.0873978      0.517348141     -60.0875296      0.857486877      10.6036766
4.596                0.854065115       49.343944       0.51838288     -60.2319603      0.518381664      -60.232093       0.85682285      10.4418295
4.597                0.853448302      49.2094795      0.519417929     -60.3767247      0.519416699     -60.3768583      0.856156019      10.2797379
4.598                0.852829179      49.0749106      0.520454473     -60.5216915      0.520453228     -60.5218259      0.855486399      10.1174027
4.599                0.852207737      48.9402376      0.521492495     -60.6668614      0.521491235     -60.6669966      0.854814004      9.95482496
4.6                  0.851583966      48.8054605      0.522531979     -60.8122348      0.522530703     -60.8123709      0.854138848      9.79200556
4.601                0.850957854      48.6705794      0.523572907     -60.9578123      0.523571616     -60.9579492      0.853460945      9.62894543
4.602                0.850329392      48.5355943      0.524615263     -61.1035943      0.524613957      -61.103732       0.85278031      9.46564545
4.603                0.849698569      48.4005054       0.52565903     -61.2495813       0.52565771     -61.2497198      0.852096954      9.30210643
4.604                0.849065376      48.2653129      0.526704193     -61.3957736      0.526702858     -61.3959128      0.851410891      9.13832915
4.605                0.848429803      48.1300168      0.527750733     -61.5421716      0.527749384     -61.5423115      0.850722133      8.97431438
4.606                0.847791839      47.9946173      0.528798636     -61.6887755      0.528797271     -61.6889162      0.850030693       8.8100628
4.607                0.847151474      47.8591146      0.529847883     -61.8355856      0.529846504      -61.835727      0.849336583      8.64557511
4.608                0.846508699       47.723509      0.530898459     -61.9826022      0.530897066     -61.9827443      0.848639814      8.48085193
4.609                0.845863503      47.5878005      0.531950348     -62.1298254       0.53194894     -62.1299682      0.847940398      8.31589386
4.61                 0.845215877      47.4519895      0.533003532     -62.2772554      0.533002109     -62.2773988      0.847238346      8.15070149
4.611                0.844565812      47.3160761      0.534057995     -62.4248923      0.534056558     -62.4250365      0.846533668      7.98527534
4.612                0.843913297      47.1800606      0.535113721     -62.5727364       0.53511227     -62.5728811      0.845826377      7.81961593
4.613                0.843258324      47.0439433      0.536170694     -62.7207875      0.536169229     -62.7209329       0.84511648      7.65372373
4.614                0.842600882      46.9077245      0.537228897     -62.8690458      0.537227418     -62.8691917       0.84440399      7.48759919
4.615                0.841940962      46.7714044      0.538288314     -63.0175112      0.538286821     -63.0176578      0.843688915      7.32124274
4.616                0.841278556      46.6349833      0.539348929     -63.1661838      0.539347422      -63.166331      0.842971265      7.15465475
4.617                0.840613653      46.4984615      0.540410726     -63.3150636      0.540409205     -63.3152113       0.84225105       6.9878356
4.618                0.839946246      46.3618394      0.541473688     -63.4641504      0.541472153     -63.4642987      0.841528279      6.82078563
4.619                0.839276324      46.2251173        0.5425378     -63.6134442      0.542536251      -63.613593      0.840802959      6.65350516
4.62                 0.838603879      46.0882956      0.543603045     -63.7629448      0.543601482     -63.7630942      0.840075101      6.48599446
4.621                0.837928902      45.9513746      0.544669407     -63.9126522      0.544667831     -63.9128021      0.839344712      6.31825381
4.622                0.837251384      45.8143547      0.545736872     -64.0625662      0.545735282     -64.0627165        0.8386118      6.15028344
4.623                0.836571317      45.6772363      0.546805421     -64.2126865      0.546803818     -64.2128373      0.837876374      5.98208359
4.624                0.835888693      45.5400198      0.547875041      -64.363013      0.547873424     -64.3631643      0.837138441      5.81365444
4.625                0.835203502      45.4027055      0.548945715     -64.5135456      0.548944085     -64.5136973      0.836398008      5.64499618
4.626                0.834515737       45.265294      0.550017427     -64.6642838      0.550015784      -64.664436      0.835655083      5.47610897
4.627                 0.83382539      45.1277856      0.551090162     -64.8152275      0.551088505     -64.8153801      0.834909674      5.30699293
