! TOUCHSTONE file generated by CST MICROWAVE STUDIO
! Date and time: Wed Jan 22 20:09:23 2025
! Project name: NUEVA_TRANSICION_CORTO.cst
! Parameters = {DespTor=4.318; H=17; Hcono=2.59394; Hstep1=13.4144; Hstep2=6.31893; Hstep3=0; Htuerca=0.1; L=55; Lback=11; Ldielectrico=9.525; Lstep1=12.9914; Lstep2=10.8318; Lstep3=9.99957; Ltor=4; Nsegments=0; Ragujero=1.4615; Rcono1=4.39874; Rcono2=2.78582; Rext=2.055; Rint=0.635; Rtor=1.275; Rtuerca=2.451; Target=-30; W=34; lopt1=0.632257; lopt2=6.83182; lopt3=5.99957; rrcono2=2.78582; thickness=2; topthickness=3}
! Header version: 2018
! Port assignment regex: !\s*Touchstone port\s*([0-9]+)\s*=\s*(CST MWS port|CST DS port)\s*([0-9]+|Zmin|Zmax)\s*\(\"(.*)\"\)(\s*mode\s*([0-9]+))?.*
! Touchstone port assignment:
! Touchstone port 1 = CST MWS port 1 ("")
! Touchstone port 2 = CST MWS port 2 ("")
# GHz S RI R 50
4                   -0.217312725    -0.974674071    -0.0360533863     0.038575577     0.0360450709   -0.0385740178      0.987121099     0.151012326
4.0016              -0.219843248    -0.974102511    -0.0360549958    0.0386881972     0.0360466167   -0.0386870782      0.987148315     0.150798036
4.0032              -0.222373421    -0.973524085     -0.036056505    0.0388010253     0.0360480541   -0.0388003399      0.987175491      0.15058375
4.0048              -0.224903221    -0.972938787    -0.0360579138    0.0389140628     0.0360493831   -0.0389138045      0.987202626     0.150369467
4.0064               -0.22743263    -0.972346611     -0.036059222    0.0390273114     0.0360506037   -0.0390274733      0.987229721     0.150155186
4.008               -0.229961627    -0.971747555    -0.0360604295    0.0391407728     0.0360517157    -0.039141348      0.987256775     0.149940906
4.0096              -0.232490192    -0.971141611    -0.0360615361    0.0392544486     0.0360527191   -0.0392554299      0.987283789     0.149726628
4.0112              -0.235018304    -0.970528776    -0.0360625414    0.0393683404     0.0360536139   -0.0393697207      0.987310763     0.149512349
4.0128              -0.237545945    -0.969909045    -0.0360634453    0.0394824499     0.0360543998   -0.0394842219      0.987337697      0.14929807
4.0144              -0.240073093    -0.969282413    -0.0360642474    0.0395967788     0.0360550768    -0.039598935      0.987364592     0.149083789
4.016               -0.242599729    -0.968648875    -0.0360649475    0.0397113288     0.0360556446   -0.0397138615      0.987391446     0.148869506
4.0176              -0.245125831    -0.968008428    -0.0360655451    0.0398261016     0.0360561031   -0.0398290032      0.987418262      0.14865522
4.0192              -0.247651381    -0.967361065    -0.0360660399     0.039941099      0.036056452   -0.0399443615      0.987445037      0.14844093
4.0208              -0.250176358    -0.966706784    -0.0360664315    0.0400563225     0.0360566911   -0.0400599381      0.987471774     0.148226636
4.0224              -0.252700741    -0.966045579    -0.0360667194    0.0401717741     0.0360568201   -0.0401757346      0.987498471     0.148012337
4.024               -0.255224511    -0.965377446    -0.0360669033    0.0402874554     0.0360568386   -0.0402917526      0.987525129     0.147798031
4.0256              -0.257747647    -0.964702381    -0.0360669825    0.0404033681     0.0360567465   -0.0404079937      0.987551749     0.147583719
4.0272              -0.260270128     -0.96402038    -0.0360669565    0.0405195141     0.0360565433   -0.0405244596      0.987578329     0.147369399
4.0288              -0.262791936    -0.963331438    -0.0360668249    0.0406358951     0.0360562286    -0.040641152       0.98760487      0.14715507
4.0304              -0.265313049    -0.962635551     -0.036066587    0.0407525128      0.036055802   -0.0407580724      0.987631373     0.146940732
4.032               -0.267833447    -0.961932716    -0.0360662422    0.0408693691     0.0360552631   -0.0408752227      0.987657837     0.146726384
4.0336               -0.27035311    -0.961222928    -0.0360657899    0.0409864658     0.0360546114   -0.0409926044      0.987684262     0.146512025
4.0352              -0.272872017    -0.960506184    -0.0360652293    0.0411038045     0.0360538464   -0.0411102192      0.987710648     0.146297655
4.0368               -0.27539015    -0.959782479    -0.0360645598    0.0412213871     0.0360529676   -0.0412280688      0.987736996     0.146083272
4.0384              -0.277907486     -0.95905181    -0.0360637805    0.0413392155     0.0360519744    -0.041346155      0.987763305     0.145868875
4.04                -0.280424006    -0.958314173    -0.0360628908    0.0414572913     0.0360508662   -0.0414644795      0.987789575     0.145654464
4.0416               -0.28293969    -0.957569565    -0.0360618899    0.0415756165     0.0360496425   -0.0415830439      0.987815806     0.145440039
4.0432              -0.285454517    -0.956817981    -0.0360607768    0.0416941927     0.0360483025   -0.0417018499      0.987841999     0.145225597
4.0448              -0.287968468    -0.956059418    -0.0360595506    0.0418130218     0.0360468457   -0.0418208994      0.987868153     0.145011138
4.0464              -0.290481521    -0.955293872    -0.0360582106    0.0419321056     0.0360452712   -0.0419401939      0.987894268     0.144796662
4.048               -0.292993658    -0.954521341    -0.0360567557    0.0420514459     0.0360435784   -0.0420597353      0.987920344     0.144582167
4.0496              -0.295504857     -0.95374182    -0.0360551849    0.0421710444     0.0360417664   -0.0421795252       0.98794638     0.144367652
4.0512              -0.298015099    -0.952955306    -0.0360534972    0.0422909031     0.0360398345   -0.0422995654      0.987972378     0.144153118
4.0528              -0.300524362    -0.952161797    -0.0360516916    0.0424110236     0.0360377818   -0.0424198577      0.987998337     0.143938562
4.0544              -0.303032628    -0.951361288     -0.036049767    0.0425314077     0.0360356075   -0.0425404036      0.988024256     0.143723984
4.056               -0.305539876    -0.950553776    -0.0360477223    0.0426520573     0.0360333106   -0.0426612051      0.988050136     0.143509383
4.0576              -0.308046086    -0.949739259    -0.0360455563    0.0427729741     0.0360308903   -0.0427822637      0.988075976     0.143294759
4.0592              -0.310551238    -0.948917732    -0.0360432678    0.0428941599     0.0360283455   -0.0429035812      0.988101776     0.143080109
4.0608              -0.313055312    -0.948089194    -0.0360408556    0.0430156163     0.0360256753   -0.0430251594      0.988127536     0.142865434
4.0624              -0.315558287     -0.94725364    -0.0360383184    0.0431373453     0.0360228786   -0.0431469999      0.988153256     0.142650733
4.064               -0.318060144    -0.946411069    -0.0360356549    0.0432593485     0.0360199543   -0.0432691044      0.988178936     0.142436004
4.0656              -0.320560863    -0.945561476    -0.0360328638    0.0433816276     0.0360169014   -0.0433914748      0.988204575     0.142221247
4.0672              -0.323060424     -0.94470486    -0.0360299437    0.0435041844     0.0360137187   -0.0435141125      0.988230173     0.142006461
4.0688              -0.325558806    -0.943841216    -0.0360268933    0.0436270206      0.036010405   -0.0436370194      0.988255731     0.141791645
4.0704              -0.328055991    -0.942970543     -0.036023711    0.0437501378     0.0360069592   -0.0437601972      0.988281246     0.141576798
4.072               -0.330551958    -0.942092838    -0.0360203955    0.0438735378     0.0360033801   -0.0438836474      0.988306721     0.141361919
4.0736              -0.333046687    -0.941208097    -0.0360169451    0.0439972222     0.0359996662   -0.0440073717      0.988332153     0.141147007
4.0752              -0.335540159    -0.940316319    -0.0360133583    0.0441211926     0.0359958164   -0.0441313719      0.988357543     0.140932061
4.0768              -0.338032354      -0.9394175    -0.0360096337    0.0442454507     0.0359918294   -0.0442556495       0.98838289     0.140717081
4.0784              -0.340523252    -0.938511637    -0.0360057694    0.0443699981     0.0359877036   -0.0443802062      0.988408195     0.140502066
4.08                -0.343012833    -0.937598729     -0.036001764    0.0444948364     0.0359834378   -0.0445050436      0.988433456     0.140287014
4.0816              -0.345501079    -0.936678772    -0.0359976157    0.0446199672     0.0359790305   -0.0446301632      0.988458674     0.140071925
4.0832              -0.347987968    -0.935751765    -0.0359933227    0.0447453919     0.0359744803   -0.0447555666      0.988483847     0.139856798
4.0848              -0.350473483    -0.934817703    -0.0359888834    0.0448711121     0.0359697856   -0.0448812555      0.988508976     0.139641632
4.0864              -0.352957603    -0.933876586     -0.035984296    0.0449971294     0.0359649449   -0.0450072314       0.98853406     0.139426426
4.088               -0.355440309     -0.93292841    -0.0359795586    0.0451234452     0.0359599566   -0.0451334957      0.988559099     0.139211179
4.0896              -0.357921582    -0.931973172    -0.0359746694    0.0452500609     0.0359548193     -0.04526005      0.988584092     0.138995891
4.0912              -0.360401402    -0.931010872    -0.0359696264     0.045376978     0.0359495311   -0.0453868958      0.988609039      0.13878056
4.0928               -0.36287975    -0.930041505    -0.0359644279    0.0455041979     0.0359440905   -0.0455140345      0.988633939     0.138565186
4.0944              -0.365356608     -0.92906507    -0.0359590718    0.0456317219     0.0359384958   -0.0456414676      0.988658791     0.138349767
4.096               -0.367831955    -0.928081564    -0.0359535562    0.0457595514     0.0359327452   -0.0457691966      0.988683596     0.138134304
4.0976              -0.370305773    -0.927090985    -0.0359478791    0.0458876876     0.0359268371   -0.0458972226      0.988708352     0.137918795
4.0992              -0.372778042     -0.92609333    -0.0359420383    0.0460161319     0.0359207695   -0.0460255473      0.988733059     0.137703239
4.1008              -0.375248745    -0.925088597     -0.035936032    0.0461448855     0.0359145409   -0.0461541718      0.988757716     0.137487636
4.1024              -0.377717861    -0.924076784    -0.0359298579    0.0462739495     0.0359081492   -0.0462830976      0.988782323     0.137271984
4.104               -0.380185373    -0.923057888    -0.0359235141    0.0464033252     0.0359015927   -0.0464123258       0.98880688     0.137056284
4.1056              -0.382651261    -0.922031907    -0.0359169982    0.0465330137     0.0358948694   -0.0465418578      0.988831385     0.136840533
4.1072              -0.385115507    -0.920998839    -0.0359103082     0.046663016     0.0358879774   -0.0466716947      0.988855837     0.136624732
4.1088              -0.387578091     -0.91995868    -0.0359034419    0.0467933333     0.0358809149   -0.0468018378      0.988880237     0.136408879
4.1104              -0.390038997     -0.91891143     -0.035896397    0.0469239664     0.0358736798   -0.0469322881      0.988904583     0.136192974
4.112               -0.392498205    -0.917857084    -0.0358891714    0.0470549165     0.0358662702   -0.0470630469      0.988928875     0.135977017
4.1136              -0.394955696    -0.916795642    -0.0358817628    0.0471861843      0.035858684   -0.0471941152      0.988953112     0.135761005
4.1152              -0.397411453      -0.9157271    -0.0358741688    0.0473177709     0.0358509192    -0.047325494      0.988977293      0.13554494
4.1168              -0.399865458    -0.914651456    -0.0358663873    0.0474496769     0.0358429739   -0.0474571844      0.989001417     0.135328819
4.1184              -0.402317691    -0.913568707    -0.0358584159    0.0475819034     0.0358348458   -0.0475891873      0.989025484     0.135112643
4.12                -0.404768136    -0.912478852    -0.0358502522    0.0477144508      0.035826533   -0.0477215037      0.989049493      0.13489641
4.1216              -0.407216773    -0.911381887    -0.0358418941    0.0478473201     0.0358180333   -0.0478541345      0.989073443     0.134680121
4.1232              -0.409663586     -0.91027781     -0.035833339    0.0479805117     0.0358093446   -0.0479870805      0.989097333     0.134463774
4.1248              -0.412108556    -0.909166618    -0.0358245847    0.0481140263     0.0358004648   -0.0481203425      0.989121162     0.134247369
4.1264              -0.414551666    -0.908048309    -0.0358156287    0.0482478645     0.0357913917   -0.0482539213      0.989144929     0.134030905
4.128               -0.416992897    -0.906922881    -0.0358064688    0.0483820268     0.0357821232   -0.0483878176      0.989168634     0.133814381
4.1296              -0.419432233     -0.90579033    -0.0357971024    0.0485165135     0.0357726571   -0.0485220322      0.989192276     0.133597798
4.1312              -0.421869655    -0.904650653    -0.0357875274    0.0486513252     0.0357629913   -0.0486565656      0.989215853     0.133381155
4.1328              -0.424305146    -0.903503848    -0.0357777411     0.048786462     0.0357531235   -0.0487914184      0.989239365     0.133164451
4.1344               -0.42673869    -0.902349913    -0.0357677413    0.0489219244     0.0357430516   -0.0489265912       0.98926281     0.132947686
4.136               -0.429170268    -0.901188844    -0.0357575256    0.0490577124     0.0357327735   -0.0490620845      0.989286188     0.132730859
4.1376              -0.431599863    -0.900020637    -0.0357470916    0.0491938264     0.0357222868   -0.0491978987      0.989309498      0.13251397
4.1392              -0.434027459    -0.898845292     -0.035736437    0.0493302664     0.0357115894   -0.0493340342      0.989332739     0.132297019
4.1408              -0.436453038    -0.897662803    -0.0357255592    0.0494670325     0.0357006792   -0.0494704914       0.98935591     0.132080005
4.1424              -0.438876583    -0.896473169    -0.0357144561    0.0496041247     0.0356895539   -0.0496072705      0.989379009     0.131862928
4.144               -0.441298077    -0.895276385    -0.0357031253    0.0497415428     0.0356782114    -0.049744372      0.989402036     0.131645788
4.1456              -0.443717504    -0.894072449    -0.0356915643    0.0498792869     0.0356666495   -0.0498817958      0.989424989     0.131428584
4.1472              -0.446134846    -0.892861358     -0.035679771    0.0500173568      0.035654866   -0.0500195423      0.989447869     0.131211317
4.1488              -0.448550088    -0.891643107    -0.0356677431    0.0501557522     0.0356428588   -0.0501576114      0.989470673     0.130993985
4.1504              -0.450963211    -0.890417694    -0.0356554782    0.0502944728     0.0356306258   -0.0502960033        0.9894934      0.13077659
4.152               -0.453374201    -0.889185115    -0.0356429741    0.0504335183     0.0356181649    -0.050434718       0.98951605     0.130559131
4.1536              -0.455782337    -0.887944054    -0.0356302303     0.050572888     0.0356054756   -0.0505737551      0.989538621     0.130341607
4.1552              -0.458188299    -0.886695824     -0.035617243    0.0507125818     0.0355925543   -0.0507131149      0.989561113      0.13012402
4.1568              -0.460592104    -0.885440483    -0.0356040098    0.0508525991     0.0355793987   -0.0508527972      0.989583523     0.129906368
4.1584              -0.462993737    -0.884178029    -0.0355905288    0.0509929395     0.0355660068   -0.0509928018      0.989605853     0.129688652
4.16                -0.465393183     -0.88290846    -0.0355767978    0.0511336021     0.0355523767   -0.0511331284      0.989628099     0.129470873
4.1616              -0.467790427    -0.881631773    -0.0355628148    0.0512745865     0.0355385064   -0.0512737769      0.989650261     0.129253029
4.1632              -0.470185455    -0.880347964    -0.0355485778    0.0514158918      0.035524394   -0.0514147467      0.989672338     0.129035122
4.1648              -0.472578252    -0.879057032    -0.0355340849    0.0515575172     0.0355100376   -0.0515560376       0.98969433     0.128817152
4.1664              -0.474968803    -0.877758972    -0.0355193342     0.051699462     0.0354954353   -0.0516976491      0.989716234     0.128599119
4.168               -0.477357093     -0.87645378    -0.0355043238    0.0518417251     0.0354805853   -0.0518395808       0.98973805     0.128381023
4.1696              -0.479743107    -0.875141454     -0.035489052    0.0519843058     0.0354654859   -0.0519818321      0.989759777     0.128162865
4.1712              -0.482126831    -0.873821989    -0.0354735171     0.052127203     0.0354501353   -0.0521244024      0.989781414     0.127944645
4.1728              -0.484508248    -0.872495381    -0.0354577175    0.0522704156      0.035434532   -0.0522672912       0.98980296     0.127726363
4.1744              -0.486887345    -0.871161624    -0.0354416515    0.0524139426     0.0354186742   -0.0524104978      0.989824414     0.127508021
4.176               -0.489264106    -0.869820715    -0.0354253177     0.052557783     0.0354025605   -0.0525540216      0.989845775     0.127289619
4.1776              -0.491638515    -0.868472648    -0.0354087146    0.0527019354     0.0353861893   -0.0526978618      0.989867042     0.127071157
4.1792              -0.494010557    -0.867117418    -0.0353918409    0.0528463988     0.0353695593   -0.0528420177      0.989888214     0.126852636
4.1808              -0.496380216    -0.865755019    -0.0353746952     0.052991172     0.0353526691   -0.0529864885      0.989909291     0.126634057
4.1824              -0.498747478    -0.864385446    -0.0353572766    0.0531362536     0.0353355173   -0.0531312734      0.989930272      0.12641542
4.184               -0.501112325    -0.863008692    -0.0353395837    0.0532816424     0.0353181028   -0.0532763717      0.989951155     0.126196727
4.1856              -0.503474742    -0.861624751    -0.0353216157    0.0534273371     0.0353004244   -0.0534217823       0.98997194     0.125977979
4.1872              -0.505834713    -0.860233616    -0.0353033715    0.0535733363     0.0352824811   -0.0535675046      0.989992627     0.125759175
4.1888              -0.508192221    -0.858835281    -0.0352848505    0.0537196388     0.0352642718   -0.0537135375      0.990013214     0.125540318
4.1904               -0.51054725    -0.857429737    -0.0352660519    0.0538662432     0.0352457958   -0.0538598803      0.990033702     0.125321409
4.192               -0.512899782    -0.856016979     -0.035246975    0.0540131481      0.035227052   -0.0540065319      0.990054089     0.125102447
4.1936                -0.5152498    -0.854596997    -0.0352276194    0.0541603522     0.0352080399   -0.0541534916      0.990074375     0.124883436
4.1952              -0.517597287    -0.853169784    -0.0352079846    0.0543078541     0.0351887588   -0.0543007583      0.990094561     0.124664375
4.1968              -0.519942226    -0.851735332    -0.0351880705    0.0544556524      0.035169208   -0.0544483313      0.990114644     0.124445266
4.1984              -0.522284597    -0.850293632    -0.0351678767    0.0546037459     0.0351493873   -0.0545962096      0.990134626     0.124226111
4.2                 -0.524624383    -0.848844675    -0.0351474033    0.0547521331     0.0351292961   -0.0547443923      0.990154505      0.12400691
4.2016              -0.526961564    -0.847388453    -0.0351266504    0.0549008129     0.0351089344   -0.0548928786      0.990174282     0.123787665
4.2032              -0.529296122    -0.845924956     -0.035105618     0.055049784     0.0350883018   -0.0550416677      0.990193957     0.123568378
4.2048              -0.531628038    -0.844454175    -0.0350843066     0.055199045     0.0350673983   -0.0551907587      0.990213529     0.123349049
