! TOUCHSTONE file generated by CST MICROWAVE STUDIO
! Date and time: Wed Jan 22 20:10:40 2025
! Project name: NUEVA_TRANSICION_CORTO.cst
! Parameters = {DespTor=4.318; H=17; Hcono=2.59394; Hstep1=13.4144; Hstep2=6.31893; Hstep3=0; Htuerca=0.1; L=55; Lback=11; Ldielectrico=9.525; Lstep1=12.9914; Lstep2=10.8318; Lstep3=9.99957; Ltor=4; Nsegments=0; Ragujero=1.4615; Rcono1=4.39874; Rcono2=2.78582; Rext=2.055; Rint=0.635; Rtor=1.275; Rtuerca=2.451; Target=-30; W=34; lopt1=0.632257; lopt2=6.83182; lopt3=5.99957; rrcono2=2.78582; thickness=2; topthickness=3}
! Header version: 2018
! Port assignment regex: !\s*Touchstone port\s*([0-9]+)\s*=\s*(CST MWS port|CST DS port)\s*([0-9]+|Zmin|Zmax)\s*\(\"(.*)\"\)(\s*mode\s*([0-9]+))?.*
! Touchstone port assignment:
! Touchstone port 1 = CST MWS port 1 ("")
! Touchstone port 2 = CST MWS port 2 ("")
! Default impedance is overridden by [Reference]
[Version] 2.0
# GHz S RI R 48.1968
[Number of Ports] 2
[Two-Port Data Order] 21_12
[Reference]
48.1968 523.477 
[Number of Frequencies] 5002
[Network Data]
4                   -0.187632643    -0.973052296     -0.131138401    0.0277281119      0.131118839   -0.0277369762      0.222303679     0.965722233
4.0016              -0.190191041    -0.972515751     -0.131363861    0.0280564418       0.13134479   -0.0280663081      0.223640573     0.965366311
4.0032              -0.192749353    -0.971972002     -0.131589242    0.0283860166      0.131570636   -0.0283968849      0.224978323     0.965008162
4.0048              -0.195307556    -0.971421041     -0.131814546    0.0287168418      0.131796377   -0.0287287117       0.22631693     0.964647779
4.0064              -0.197865628    -0.970862861      -0.13203977    0.0290489235      0.132022011   -0.0290617939      0.227656395     0.964285155
4.008               -0.200423547    -0.970297452     -0.132264915    0.0293822674      0.132247539   -0.0293961368       0.22899672     0.963920286
4.0096              -0.202981291    -0.969724806      -0.13248998    0.0297168797      0.132472961   -0.0297317459      0.230337906     0.963553164
4.0112              -0.205538838    -0.969144915     -0.132714965    0.0300527663      0.132698274   -0.0300686268      0.231679954     0.963183784
4.0128              -0.208096165    -0.968557772     -0.132939868    0.0303899335      0.132923479    -0.030406785      0.233022866     0.962812139
4.0144              -0.210653252    -0.967963367     -0.133164689    0.0307283875      0.133148576   -0.0307462264      0.234366643     0.962438223
4.016               -0.213210074    -0.967361694     -0.133389427    0.0310681347      0.133373562   -0.0310869566      0.235711287     0.962062029
4.0176               -0.21576661    -0.966752743     -0.133614081    0.0314091814      0.133598439   -0.0314289817      0.237056799      0.96168355
4.0192              -0.218322838    -0.966136508     -0.133838651    0.0317515342      0.133823203   -0.0317723074      0.238403181     0.961302781
4.0208              -0.220878734    -0.965512979     -0.134063134    0.0320951996      0.134047856   -0.0321169399      0.239750433     0.960919714
4.0224              -0.223434277    -0.964882151     -0.134287531    0.0324401843      0.134272395   -0.0324628853      0.241098559     0.960534342
4.024               -0.225989445    -0.964244014      -0.13451184     0.032786495       0.13449682   -0.0328101497      0.242447558     0.960146658
4.0256              -0.228544213    -0.963598562     -0.134736059    0.0331341386       0.13472113   -0.0331587395      0.243797433     0.959756655
4.0272               -0.23109856    -0.962945786     -0.134960188     0.033483122      0.134945323    -0.033508661      0.245148185     0.959364326
4.0288              -0.233652463    -0.962285679     -0.135184224    0.0338334521      0.135169398   -0.0338599206      0.246499815     0.958969664
4.0304                -0.2362059    -0.961618234     -0.135408167    0.0341851361      0.135393354   -0.0342125249      0.247852325      0.95857266
4.032               -0.238758847    -0.960943443     -0.135632015    0.0345381809      0.135617189   -0.0345664803      0.249205717     0.958173309
4.0336              -0.241311281    -0.960261299     -0.135855766     0.034892594      0.135840903   -0.0349217937      0.250559992     0.957771601
4.0352              -0.243863181    -0.959571794     -0.136079418    0.0352483824      0.136064493   -0.0352784718       0.25191515      0.95736753
4.0368              -0.246414522    -0.958874922      -0.13630297    0.0356055537      0.136287957   -0.0356365213      0.253271195     0.956961087
4.0384              -0.248965282    -0.958170676     -0.136526419    0.0359641152      0.136511295   -0.0359959492      0.254628127     0.956552264
4.04                -0.251515438    -0.957459047     -0.136749764    0.0363240744      0.136734504   -0.0363567624      0.255985948     0.956141054
4.0416              -0.254064967    -0.956740029     -0.136973002    0.0366854389      0.136957583   -0.0367189679      0.257344659     0.955727447
4.0432              -0.256613845    -0.956013616     -0.137196132    0.0370482164      0.137180529    -0.037082573      0.258704261     0.955311437
4.0448              -0.259162051      -0.9552798      -0.13741915    0.0374124146      0.137403341   -0.0374475847      0.260064756     0.954893013
4.0464               -0.26170956    -0.954538574     -0.137642054    0.0377780413      0.137626016   -0.0378140104      0.261426146     0.954472168
4.048               -0.264256349    -0.953789932     -0.137864842    0.0381451043      0.137848552   -0.0381818573      0.262788431     0.954048894
4.0496              -0.266802395    -0.953033867     -0.138087511    0.0385136115      0.138070946   -0.0385511328      0.264151612      0.95362318
4.0512              -0.269347675    -0.952270372     -0.138310058    0.0388835709      0.138293197   -0.0389218444      0.265515692     0.953195018
4.0528              -0.271892166    -0.951499441      -0.13853248    0.0392549905      0.138515301   -0.0392939997      0.266880671       0.9527644
4.0544              -0.274435843    -0.950721067     -0.138754774    0.0396278785      0.138737256   -0.0396676061      0.268246551     0.952331315
4.056               -0.276978685    -0.949935243     -0.138976938    0.0400022429       0.13895906   -0.0400426715      0.269613333     0.951895755
4.0576              -0.279520668    -0.949141964     -0.139198967     0.040378092      0.139180708   -0.0404192033      0.270981017      0.95145771
4.0592              -0.282061767    -0.948341223     -0.139420858    0.0407554341        0.1394022   -0.0407972095      0.272349605     0.951017171
4.0608               -0.28460196    -0.947533013     -0.139642609    0.0411342773       0.13962353   -0.0411766978      0.273719097     0.950574127
4.0624              -0.287141224    -0.946717329     -0.139864214    0.0415146302      0.139844696   -0.0415576762      0.275089496     0.950128569
4.064               -0.289679535    -0.945894164      -0.14008567    0.0418965011      0.140065695   -0.0419401525      0.276460801     0.949680486
4.0656              -0.292216868    -0.945063512     -0.140306974    0.0422798984      0.140286523   -0.0423241347      0.277833014      0.94922987
4.0672              -0.294753202    -0.944225367     -0.140528122    0.0426648307      0.140507176   -0.0427096309      0.279206135     0.948776708
4.0688              -0.297288513    -0.943379724     -0.140749108    0.0430513063      0.140727651   -0.0430966491      0.280580165     0.948320992
4.0704              -0.299822776    -0.942526575     -0.140969928     0.043439334      0.140947945   -0.0434851975      0.281955104      0.94786271
4.072               -0.302355968    -0.941665916     -0.141190579    0.0438289223      0.141168052   -0.0438752841      0.283330954     0.947401851
4.0736              -0.304888066     -0.94079774     -0.141411056    0.0442200797      0.141387969   -0.0442669172      0.284707714     0.946938406
4.0752              -0.307419047    -0.939922043     -0.141631353     0.044612815      0.141607692   -0.0446601051      0.286085386     0.946472362
4.0768              -0.309948886    -0.939038817     -0.141851465    0.0450071368      0.141827215   -0.0450548559      0.287463968     0.946003708
4.0784              -0.312477561    -0.938148058     -0.142071389    0.0454030539      0.142046536   -0.0454511781      0.288843462     0.945532435
4.08                -0.315005047     -0.93724976     -0.142291117    0.0458005748      0.142265649   -0.0458490798      0.290223868     0.945058529
4.0816              -0.317531321    -0.936343917     -0.142510646    0.0461997083      0.142484548   -0.0462485695      0.291605185      0.94458198
4.0832               -0.32005636    -0.935430524     -0.142729969    0.0466004632       0.14270323   -0.0466496555      0.292987414     0.944102775
4.0848              -0.322580139    -0.934509576      -0.14294908    0.0470028481      0.142921689   -0.0470523462      0.294370554     0.943620904
4.0864              -0.325102636    -0.933581067     -0.143167974    0.0474068718       0.14313992     -0.04745665      0.295754605     0.943136353
4.088               -0.327623827    -0.932644992     -0.143386645    0.0478125431      0.143357918   -0.0478625753      0.297139566     0.942649111
4.0896              -0.330143688    -0.931701346     -0.143605086    0.0482198706      0.143575676   -0.0482701305      0.298525437     0.942159166
4.0912              -0.332662196    -0.930750123     -0.143823291    0.0486288631       0.14379319   -0.0486793241      0.299912218     0.941666505
4.0928              -0.335179327    -0.929791319     -0.144041253    0.0490395293      0.144010453   -0.0490901644      0.301299907     0.941171116
4.0944              -0.337695058    -0.928824928     -0.144258966    0.0494518777       0.14422746     -0.04950266      0.302688503     0.940672985
4.096               -0.340209365    -0.927850945     -0.144476423    0.0498659172      0.144444203   -0.0499168191      0.304078005     0.940172102
4.0976              -0.342722225    -0.926869366     -0.144693617    0.0502816564      0.144660678   -0.0503326503      0.305468413     0.939668451
4.0992              -0.345233614    -0.925880185      -0.14491054    0.0506991037      0.144876876   -0.0507501618      0.306859723     0.939162021
4.1008               -0.34774351    -0.924883397     -0.145127185    0.0511182678      0.145092793   -0.0511693621      0.308251936     0.938652797
4.1024              -0.350251888    -0.923878998     -0.145343545    0.0515391572      0.145308421   -0.0515902594      0.309645048     0.938140768
4.104               -0.352758725    -0.922866983     -0.145559611    0.0519617804      0.145523752   -0.0520128622      0.311039059     0.937625919
4.1056              -0.355263998    -0.921847346     -0.145775377    0.0523861458       0.14573878   -0.0524371786      0.312433966     0.937108236
4.1072              -0.357767684    -0.920820084     -0.145990833    0.0528122617      0.145953498   -0.0528632169      0.313829766     0.936587707
4.1088              -0.360269759    -0.919785192     -0.146205972    0.0532401364      0.146167898   -0.0532909854      0.315226457     0.936064317
4.1104                -0.3627702    -0.918742665     -0.146420785    0.0536697782      0.146381973   -0.0537204921      0.316624037     0.935538053
4.112               -0.365268984    -0.917692498     -0.146635263    0.0541011953      0.146595714   -0.0541517451      0.318022502       0.9350089
4.1136              -0.367766087    -0.916634686     -0.146849398    0.0545343956      0.146809114   -0.0545847525      0.319421849     0.934476844
4.1152              -0.370261488    -0.915569226     -0.147063181    0.0549693873      0.147022165   -0.0550195223      0.320822076     0.933941872
4.1168              -0.372755161    -0.914496113     -0.147276603    0.0554061781      0.147234858   -0.0554560624      0.322223177     0.933403968
4.1184              -0.375247086    -0.913415342     -0.147489653    0.0558447759      0.147447186   -0.0558943806       0.32362515     0.932863119
4.12                -0.377737238    -0.912326908     -0.147702324    0.0562851885      0.147659138   -0.0563344846      0.325027991     0.932319309
4.1216              -0.380225594    -0.911230808     -0.147914606    0.0567274234      0.147870708   -0.0567763822      0.326431695     0.931772525
4.1232              -0.382712132    -0.910127037     -0.148126487     0.057171488      0.148081885   -0.0572200809      0.327836257     0.931222751
4.1248              -0.385196829     -0.90901559      -0.14833796    0.0576173898      0.148292661   -0.0576655882      0.329241674     0.930669974
4.1264              -0.387679663    -0.907896463     -0.148549013    0.0580651361      0.148503027   -0.0581129116      0.330647939     0.930114177
4.128               -0.390160609    -0.906769652     -0.148759636    0.0585147338      0.148712973   -0.0585620582      0.332055048     0.929555347
4.1296              -0.392639647    -0.905635152      -0.14896982      0.05896619       0.14892249   -0.0590130353      0.333462994     0.928993469
4.1312              -0.395116752    -0.904492959     -0.149179553    0.0594195115      0.149131568   -0.0594658499      0.334871773     0.928428527
4.1328              -0.397591903    -0.903343068     -0.149388824     0.059874705      0.149340198    -0.059920509      0.336281377     0.927860506
4.1344              -0.400065077    -0.902185476     -0.149597624    0.0603317769      0.149548369   -0.0603770193      0.337691801     0.927289392
4.136               -0.402536252    -0.901020179      -0.14980594    0.0607907338      0.149756071   -0.0608353876      0.339103038      0.92671517
4.1376              -0.405005405     -0.89984717     -0.150013762    0.0612515817      0.149963295   -0.0612956203       0.34051508     0.926137824
4.1392              -0.407472514    -0.898666447     -0.150221079    0.0617143266      0.150170029   -0.0617577239      0.341927921      0.92555734
4.1408              -0.409937557    -0.897478005     -0.150427879    0.0621789744      0.150376264   -0.0622217046      0.343341552     0.924973702
4.1424              -0.412400511     -0.89628184     -0.150634152    0.0626455308      0.150581989   -0.0626875685      0.344755966     0.924386896
4.144               -0.414861355    -0.895077947     -0.150839884    0.0631140012      0.150787193   -0.0631553214      0.346171155     0.923796906
4.1456              -0.417320066    -0.893866322     -0.151045065    0.0635843908      0.150991865   -0.0636249692      0.347587109     0.923203718
4.1472              -0.419776623     -0.89264696     -0.151249683    0.0640567047      0.151195995   -0.0640965174       0.34900382     0.922607317
4.1488              -0.422231003    -0.891419857     -0.151453725    0.0645309477      0.151399572   -0.0645699715      0.350421279     0.922007688
4.1504              -0.424683185     -0.89018501     -0.151657181    0.0650071245      0.151602584   -0.0650453365      0.351839475     0.921404817
4.152               -0.427133146    -0.888942412     -0.151860038    0.0654852395       0.15180502   -0.0655226176        0.3532584     0.920798688
4.1536              -0.429580197    -0.887690705     -0.152062283    0.0659652967       0.15200687   -0.0660018196      0.354678042     0.920189288
4.1552              -0.432024976    -0.886431242     -0.152263905    0.0664473003      0.152208121   -0.0664829471      0.356098392     0.919576601
4.1568              -0.434467494    -0.885164085     -0.152464892    0.0669312538      0.152408762   -0.0669660045      0.357519437     0.918960614
4.1584              -0.436907732    -0.883889229     -0.152665231    0.0674171607      0.152608783   -0.0674509961      0.358941167     0.918341313
4.16                -0.439345669    -0.882606673     -0.152864909    0.0679050242      0.152808171   -0.0679379258       0.36036357     0.917718683
4.1616              -0.441781286    -0.881316413     -0.153063916    0.0683948474      0.153006914   -0.0684267975      0.361786634     0.917092712
4.1632              -0.444214562    -0.880018446     -0.153262237    0.0688866329      0.153205002   -0.0689176147      0.363210347     0.916463384
4.1648              -0.446645477    -0.878712767     -0.153459862    0.0693803831      0.153402423   -0.0694103807      0.364634696     0.915830688
4.1664              -0.449074012    -0.877399375     -0.153656777    0.0698761003      0.153599164   -0.0699050987      0.366059667      0.91519461
4.168               -0.451500147    -0.876078263      -0.15385297    0.0703737863      0.153795216   -0.0704017716      0.367485248     0.914555137
4.1696              -0.453923861     -0.87474943     -0.154048429    0.0708734428      0.153990565   -0.0709004019      0.368911424     0.913912257
4.1712              -0.456345134    -0.873412869     -0.154243142    0.0713750712        0.1541852   -0.0714009922      0.370338182     0.913265957
4.1728              -0.458763947    -0.872068577     -0.154437097    0.0718786726       0.15437911   -0.0719035445      0.371765507     0.912616226
4.1744               -0.46118028    -0.870716549     -0.154630281    0.0723842478      0.154572284   -0.0724080608      0.373193384     0.911963051
4.176               -0.463594112     -0.86935678     -0.154822682    0.0728917974      0.154764709   -0.0729145428      0.374621798     0.911306422
4.1776              -0.466005422    -0.867989264     -0.155014289    0.0734013216      0.154956375    -0.073422992      0.376050733     0.910646328
4.1792              -0.468414192    -0.866613998      -0.15520509    0.0739128206       0.15514727   -0.0739334095      0.377480175     0.909982759
4.1808                -0.4708204    -0.865230974     -0.155395073    0.0744262939      0.155337384   -0.0744457963      0.378910107     0.909315703
4.1824              -0.473224026    -0.863840186     -0.155584226    0.0749417411      0.155526704   -0.0749601533      0.380340512     0.908645152
4.184               -0.475625048     -0.86244163     -0.155772539    0.0754591614       0.15571522   -0.0754764807      0.381771375     0.907971097
4.1856              -0.478023448    -0.861035298     -0.155959999    0.0759785537      0.155902921    -0.075994779      0.383202677     0.907293529
4.1872              -0.480419203    -0.859621183     -0.156146596    0.0764999166      0.156089797   -0.0765150481      0.384634403      0.90661244
4.1888              -0.482812292    -0.858199279      -0.15633232    0.0770232486      0.156275837   -0.0770372878      0.386066535     0.905927822
4.1904              -0.485202694    -0.856769579     -0.156517159    0.0775485478      0.156461031   -0.0775614977      0.387499055     0.905239668
4.192               -0.487590388    -0.855332075     -0.156701104    0.0780758122      0.156645368   -0.0780876771      0.388931946     0.904547972
4.1936              -0.489975352    -0.853886759     -0.156884144    0.0786050394      0.156828839   -0.0786158253       0.39036519     0.903852729
4.1952              -0.492357564    -0.852433624      -0.15706627    0.0791362268      0.157011434   -0.0791459411      0.391798768     0.903153932
4.1968              -0.494737002     -0.85097266     -0.157247471    0.0796693716      0.157193144   -0.0796780233      0.393232663     0.902451577
4.1984              -0.497113643    -0.849503861      -0.15742774     0.080204471       0.15737396   -0.0802120705      0.394666857     0.901745661
4.2                 -0.499487465    -0.848027216     -0.157607067    0.0807415217      0.157553872    -0.080748081      0.396101331      0.90103618
4.2016              -0.501858445    -0.846542717     -0.157785444    0.0812805203      0.157732872    -0.081286053      0.397536067     0.900323133
4.2032              -0.504226559    -0.845050354     -0.157962862    0.0818214633      0.157910952   -0.0818259847      0.398971046     0.899606517
