! TOUCHSTONE file generated by CST MICROWAVE STUDIO
! Date and time: Wed Jan 22 20:10:25 2025
! Project name: NUEVA_TRANSICION_CORTO.cst
! Parameters = {DespTor=4.318; H=17; Hcono=2.59394; Hstep1=13.4144; Hstep2=6.31893; Hstep3=0; Htuerca=0.1; L=55; Lback=11; Ldielectrico=9.525; Lstep1=12.9914; Lstep2=10.8318; Lstep3=9.99957; Ltor=4; Nsegments=0; Ragujero=1.4615; Rcono1=4.39874; Rcono2=2.78582; Rext=2.055; Rint=0.635; Rtor=1.275; Rtuerca=2.451; Target=-30; W=34; lopt1=0.632257; lopt2=6.83182; lopt3=5.99957; rrcono2=2.78582; thickness=2; topthickness=3}
! Header version: 2018
! Port assignment regex: !\s*Touchstone port\s*([0-9]+)\s*=\s*(CST MWS port|CST DS port)\s*([0-9]+|Zmin|Zmax)\s*\(\"(.*)\"\)(\s*mode\s*([0-9]+))?.*
! Touchstone port assignment:
! Touchstone port 1 = CST MWS port 1 ("")
! Touchstone port 2 = CST MWS port 2 ("")
! Default impedance is overridden by [Reference]
[Version] 2.0
# GHz S MA R 48.1968
[Number of Ports] 2
[Two-Port Data Order] 21_12
[Reference]
48.1968 523.477 
[Number of Frequencies] 5002
[Network Data]
4                    0.990977689     -100.914324      0.134037787      168.061136      0.134020482     -11.9443022      0.990978484      77.0366669
4.0016               0.990938705     -101.065449      0.134326572      167.944013      0.134309983     -12.0618026      0.990932501      76.9567211
4.0032               0.990899534      -101.21666      0.134616101      167.826868      0.134600205     -12.1793245      0.990886471      76.8766906
4.0048               0.990860172     -101.367958       0.13490638        167.7097      0.134891155     -12.2968685      0.990840396      76.7965751
4.0064                0.99082062     -101.519343      0.135197414      167.592509      0.135182837     -12.4144354      0.990794275      76.7163742
4.008                0.990780875     -101.670814      0.135489208      167.475294      0.135475254     -12.5320258      0.990748109      76.6360876
4.0096               0.990740937     -101.822373      0.135781765      167.358053      0.135768413     -12.6496404      0.990701898       76.555715
4.0112               0.990700803     -101.974019      0.136075092      167.240786      0.136062318       -12.76728      0.990655643       76.475256
4.0128               0.990660472     -102.125752      0.136369192      167.123492      0.136356973     -12.8849454      0.990609343      76.3947102
4.0144               0.990619944     -102.277571       0.13666407       167.00617      0.136652383     -13.0026373      0.990562999      76.3140774
4.016                0.990579215     -102.429478      0.136959732      166.888818      0.136948552     -13.1203566      0.990516612      76.2333572
4.0176               0.990538286     -102.581471      0.137256181      166.771437      0.137245487      -13.238104       0.99047018      76.1525491
4.0192               0.990497154     -102.733552      0.137553423      166.654025      0.137543191     -13.3558804      0.990423704      76.0716529
4.0208               0.990455819     -102.885719      0.137851463       166.53658      0.137841668     -13.4736867      0.990377184      75.9906683
4.0224               0.990414278     -103.037974      0.138150304      166.419103      0.138140924     -13.5915238       0.99033062      75.9095947
4.024                 0.99037253     -103.190315      0.138449952      166.301591      0.138440964     -13.7093925      0.990284011      75.8284319
4.0256               0.990330574     -103.342744      0.138750412      166.184044      0.138741792     -13.8272937      0.990237358      75.7471795
4.0272               0.990288408     -103.495259      0.139051687      166.066461      0.139043412     -13.9452284       0.99019066      75.6658371
4.0288               0.990246031     -103.647862      0.139353784       165.94884       0.13934583     -14.0631976      0.990143916      75.5844043
4.0304               0.990203441     -103.800551      0.139656705      165.831181       0.13964905     -14.1812022      0.990097127      75.5028809
4.032                0.990160637     -103.953328      0.139960457      165.713482      0.139953076     -14.2992432      0.990050291      75.4212663
4.0336               0.990117617     -104.106191      0.140265043      165.595742      0.140257914     -14.4173216      0.990003409      75.3395602
4.0352               0.990074381     -104.259142      0.140570468       165.47796      0.140563568     -14.5354384      0.989956479      75.2577622
4.0368               0.990030925      -104.41218      0.140876737      165.360135      0.140870043     -14.6535948      0.989909501      75.1758719
4.0384                0.98998725     -104.565305      0.141183855      165.242265      0.141177343     -14.7717916      0.989862474       75.093889
4.04                 0.989943353     -104.718517      0.141491825       165.12435      0.141485472     -14.8900301      0.989815397       75.011813
4.0416               0.989899233     -104.871816      0.141800652      165.006388      0.141794436     -15.0083113      0.989768269      74.9296436
4.0432               0.989854888     -105.025203      0.142110341      164.888377      0.142104239     -15.1266363       0.98972109      74.8473803
4.0448               0.989810318     -105.178677      0.142420895      164.770317      0.142414886     -15.2450062      0.989673857      74.7650227
4.0464               0.989765519     -105.332238      0.142732321      164.652206       0.14272638     -15.3634223      0.989626571      74.6825705
4.048                0.989720492     -105.485886      0.143044621      164.534043      0.143038727     -15.4818856      0.989579229      74.6000233
4.0496               0.989675234     -105.639621        0.1433578      164.415827      0.143351931     -15.6003973       0.98953183      74.5173805
4.0512               0.989629745     -105.793444      0.143671863      164.297556      0.143665995     -15.7189586      0.989484374      74.4346419
4.0528               0.989584022     -105.947355      0.143986813      164.179228      0.143980926     -15.8375708      0.989436857       74.351807
4.0544               0.989538064     -106.101352      0.144302655      164.060843      0.144296726      -15.956235      0.989389279      74.2688754
4.056                0.989491869     -106.255437      0.144619392        163.9424      0.144613401     -16.0749525      0.989341639      74.1858467
4.0576               0.989445437      -106.40961       0.14493703      163.823896      0.144930955     -16.1937245      0.989293933      74.1027205
4.0592               0.989398765      -106.56387      0.145255572       163.70533      0.145249391     -16.3125523       0.98924616      74.0194963
4.0608               0.989351852     -106.718218      0.145575022      163.586701      0.145568714     -16.4314371      0.989198319      73.9361738
4.0624               0.989304697     -106.872654      0.145895383      163.468008      0.145888928     -16.5503803      0.989150407      73.8527524
4.064                0.989257298     -107.027177      0.146216661      163.349248      0.146210038     -16.6693832      0.989102422      73.7692319
4.0656               0.989209654     -107.181788      0.146538858      163.230422      0.146532047      -16.788447      0.989054361      73.6856118
4.0672               0.989161763     -107.336486      0.146861978      163.111526       0.14685496     -16.9075731      0.989006222      73.6018916
4.0688               0.989113625     -107.491273      0.147186026       162.99256      0.147178779     -17.0267628      0.988958003      73.5180709
4.0704               0.989065236     -107.646147      0.147511005      162.873522       0.14750351     -17.1460175      0.988909701      73.4341494
4.072                0.989016597      -107.80111      0.147836917      162.754411      0.147829156     -17.2653385      0.988861313      73.3501265
4.0736               0.988967705      -107.95616      0.148163768      162.635225      0.148155721     -17.3847272      0.988812837      73.2660019
4.0752               0.988918559     -108.111299       0.14849156      162.515963      0.148483209     -17.5041849      0.988764269      73.1817751
4.0768               0.988869158     -108.266526      0.148820296      162.396623      0.148811623      -17.623713      0.988715606      73.0974458
4.0784                 0.9888195     -108.421841      0.149149981      162.277204      0.149140967     -17.7433129      0.988666845      73.0130134
4.08                 0.988769585     -108.577244      0.149480617      162.157704      0.149471244      -17.862986      0.988617983      72.9284777
4.0816               0.988719409     -108.732736      0.149812207      162.038122      0.149802459     -17.9827337      0.988569016       72.843838
4.0832               0.988668973     -108.888317      0.150144754      161.918456      0.150134614     -18.1025574      0.988519941      72.7590941
4.0848               0.988618275     -109.043986      0.150478262      161.798704      0.150467713     -18.2224585      0.988470754      72.6742455
4.0864               0.988567313     -109.199743      0.150812732      161.678866      0.150801759     -18.3424384      0.988421452      72.5892918
4.088                0.988516087      -109.35559      0.151148169       161.55894      0.151136755     -18.4624986      0.988372029      72.5042326
4.0896               0.988464594     -109.511526      0.151484575      161.438923      0.151472705     -18.5826403      0.988322483      72.4190674
4.0912               0.988412833      -109.66755      0.151821952      161.318815      0.151809611     -18.7028651      0.988272809      72.3337959
4.0928               0.988360803     -109.823664      0.152160304      161.198614      0.152147477     -18.8231744      0.988223003      72.2484176
4.0944               0.988308504     -109.979867      0.152499631      161.078319      0.152486306     -18.9435696      0.988173059      72.1629321
4.096                0.988255933     -110.136159      0.152839937      160.957928      0.152826099      -19.064052      0.988122975       72.077339
4.0976               0.988203089     -110.292541      0.153181225       160.83744      0.153166861     -19.1846232      0.988072745       71.991638
4.0992               0.988149971     -110.449013      0.153523495      160.716853      0.153508593     -19.3052844      0.988022363      71.9058286
4.1008               0.988096577     -110.605574      0.153866751      160.596165      0.153851299     -19.4260372      0.987971826      71.8199103
4.1024               0.988042908     -110.762225      0.154210994      160.475376       0.15419498     -19.5468828      0.987921129      71.7338829
4.104                 0.98798896     -110.918967      0.154556226      160.354483       0.15453964     -19.6678228      0.987870265       71.647746
4.1056               0.987934734     -111.075798      0.154902449      160.233486       0.15488528     -19.7888585      0.987819229      71.5614991
4.1072               0.987880227     -111.232721      0.155249665      160.112382      0.155231902     -19.9099912      0.987768017      71.4751418
4.1088               0.987825439     -111.389733      0.155597874      159.991171      0.155579509     -20.0312223      0.987716622      71.3886739
4.1104               0.987770369     -111.546836      0.155947078      159.869851      0.155928103     -20.1525531      0.987665039      71.3020949
4.112                0.987715015     -111.704031       0.15629728      159.748421      0.156277685     -20.2739851      0.987613262      71.2154044
4.1136               0.987659376     -111.861316      0.156648479      159.626879      0.156628258     -20.3955196      0.987561284      71.1286021
4.1152               0.987603452     -112.018693      0.157000677      159.505224      0.156979823     -20.5171577      0.987509101      71.0416877
4.1168                0.98754724     -112.176161      0.157353876      159.383455      0.157332382      -20.638901      0.987456705      70.9546608
4.1184                0.98749074     -112.333721      0.157708075       159.26157      0.157685936     -20.7607505      0.987404089      70.8675211
4.12                 0.987433951     -112.491372      0.158063275      159.139568      0.158040486     -20.8827076      0.987351249      70.7802682
4.1216               0.987376872     -112.649116      0.158419478      159.017448      0.158396035     -21.0047736      0.987298177      70.6929018
4.1232               0.987319502     -112.806952      0.158776684      158.895208      0.158752582     -21.1269496      0.987244865      70.6054216
4.1248               0.987261839     -112.964881      0.159134892      158.772848       0.15911013     -21.2492368      0.987191309      70.5178272
4.1264               0.987203884     -113.122902      0.159494104      158.650366      0.159468679     -21.3716365      0.987137499      70.4301185
4.128                0.987145634     -113.281017       0.15985432      158.527761       0.15982823     -21.4941498       0.98708343      70.3422951
4.1296               0.987087088     -113.439225      0.160215538      158.405032      0.160188784     -21.6167777      0.987029094      70.2543567
4.1312               0.987028247     -113.597526      0.160577761      158.282178      0.160550341     -21.7395214      0.986974485       70.166303
4.1328               0.986969108     -113.755921      0.160940986      158.159198      0.160912902      -21.862382      0.986919593      70.0781338
4.1344               0.986909672     -113.914411      0.161305215      158.036091      0.161276468     -21.9853605      0.986864413      69.9898489
4.136                0.986849936     -114.072995      0.161670446      157.912855      0.161641038     -22.1084578      0.986808936       69.901448
4.1376               0.986789901     -114.231673      0.162036678      157.789491      0.162006613      -22.231675      0.986753155      69.8129308
4.1392               0.986729564     -114.390446      0.162403912      157.665997      0.162373194      -22.355013      0.986697062      69.7242972
4.1408               0.986668926     -114.549315      0.162772147      157.542372      0.162740779     -22.4784727      0.986640649       69.635547
4.1424               0.986607986     -114.708279      0.163141381      157.418616       0.16310937     -22.6020548      0.986583909      69.5466799
4.144                0.986546742      -114.86734      0.163511613      157.294727      0.163478965     -22.7257604      0.986526833      69.4576959
4.1456               0.986485194     -115.026496      0.163882843      157.170706      0.163849566     -22.8495901      0.986469414      69.3685947
4.1472               0.986423341     -115.185749       0.16425507      157.046551       0.16422117     -22.9735446      0.986411643      69.2793762
4.1488               0.986361182     -115.345099      0.164628291      156.922262      0.164593778     -23.0976246      0.986353512      69.1900402
4.1504               0.986298717     -115.504547      0.165002505      156.797838      0.164967389     -23.2218309      0.986295013      69.1005867
4.152                0.986235944     -115.664092      0.165377712      156.673279      0.165342002     -23.3461639      0.986236139      69.0110155
4.1536                0.98617135     -115.823734      0.165753909      156.548585      0.165717617     -23.4706242       0.98617688      68.9213265
4.1552               0.986106448     -115.983475      0.166131094      156.423755      0.166094233     -23.5952123      0.986117229      68.8315198
4.1568               0.986041308     -116.143315      0.166509267      156.298788      0.166471849     -23.7199286      0.986057178      68.7415952
4.1584               0.985975931     -116.303254      0.166888424      156.173686      0.166850464     -23.8447735      0.985996718      68.6515527
4.16                 0.985910319     -116.463293      0.167268565      156.048446      0.167230077     -23.9697474      0.985935842      68.5613922
4.1616               0.985844473     -116.623432      0.167649687       155.92307      0.167610687     -24.0948504      0.985874541      68.4711139
4.1632               0.985778394     -116.783671      0.168031787      155.797558      0.167992292     -24.2200829      0.985812807      68.3807176
4.1648               0.985712083     -116.944012      0.168414865      155.671909      0.168374892     -24.3454449      0.985750633      68.2902035
4.1664                0.98564554     -117.104454      0.168798917      155.546123      0.168758485     -24.4709366      0.985688011      68.1995715
4.168                0.985578767     -117.264998      0.169183942      155.420201      0.169143069     -24.5965579      0.985624932      68.1088218
4.1696               0.985511763     -117.425644      0.169569937      155.294142      0.169528644     -24.7223089      0.985561389      68.0179545
4.1712                0.98544453     -117.586393      0.169956899      155.167948      0.169915207     -24.8481894      0.985497375      67.9269697
4.1728               0.985377066     -117.747246      0.170344828      155.041619      0.170302758     -24.9741991      0.985432883      67.8358674
4.1744               0.985309372     -117.908202       0.17073372      154.915155      0.170691295      -25.100338      0.985367905       67.744648
4.176                0.985241448     -118.069263      0.171123572      154.788556      0.171080817     -25.2266057      0.985302434      67.6533114
4.1776               0.985173293     -118.230428      0.171514384      154.661824      0.171471321     -25.3530017      0.985236464       67.561858
4.1792               0.985104906     -118.391699      0.171906152      154.534959      0.171862807     -25.4795257      0.985169987       67.470288
4.1808               0.985036287     -118.553076      0.172298874      154.407962      0.172255274     -25.6061771      0.985102998      67.3786015
4.1824               0.984967434     -118.714559      0.172692547      154.280834      0.172648719     -25.7329552      0.985035491      67.2867989
4.184                0.984898346     -118.876149      0.173087171      154.153575      0.173043142     -25.8598595      0.984967459      67.1948804
4.1856               0.984829021     -119.037847      0.173482742      154.026188      0.173438541     -25.9868891      0.984898898      67.1028464
4.1872               0.984759457     -119.199653      0.173879259      153.898672      0.173834914     -26.1140433      0.984829803      67.0106971
4.1888               0.984689653     -119.361567       0.17427672      153.771029      0.174232262     -26.2413211      0.984760168      66.9184329
4.1904               0.984619605     -119.523591      0.174675123      153.643261      0.174630582     -26.3687216      0.984689989      66.8260541
4.192                 0.98454931     -119.685724      0.175074466      153.515369      0.175029874     -26.4962436      0.984619263      66.7335612
4.1936               0.984478767     -119.847968      0.175474747      153.387355      0.175430137     -26.6238861      0.984547986      66.6409545
4.1952               0.984407971     -120.010322      0.175875966      153.259219       0.17583137     -26.7516479      0.984476154      66.5482345
4.1968               0.984336919     -120.172788      0.176278121      153.130964      0.176233572     -26.8795276      0.984403767      66.4554016
4.1984               0.984265606     -120.335366      0.176681212      153.002592      0.176636744      -27.007524      0.984330821      66.3624562
4.2                  0.984194029     -120.498057      0.177085236      152.874103      0.177040885     -27.1356355      0.984257315      66.2693989
4.2016               0.984122182     -120.660861      0.177490195      152.745501      0.177445995     -27.2638607      0.984183249      66.1762301
4.2032               0.984050061     -120.823778      0.177896087      152.616787      0.177852075     -27.3921981      0.984108623      66.0829503
