! TOUCHSTONE file generated by CST MICROWAVE STUDIO
! Date and time: Wed Jan 22 20:10:49 2025
! Project name: NUEVA_TRANSICION_CORTO.cst
! Parameters = {DespTor=4.318; H=17; Hcono=2.59394; Hstep1=13.4144; Hstep2=6.31893; Hstep3=0; Htuerca=0.1; L=55; Lback=11; Ldielectrico=9.525; Lstep1=12.9914; Lstep2=10.8318; Lstep3=9.99957; Ltor=4; Nsegments=0; Ragujero=1.4615; Rcono1=4.39874; Rcono2=2.78582; Rext=2.055; Rint=0.635; Rtor=1.275; Rtuerca=2.451; Target=-30; W=34; lopt1=0.632257; lopt2=6.83182; lopt3=5.99957; rrcono2=2.78582; thickness=2; topthickness=3}
! Header version: 2018
! Port assignment regex: !\s*Touchstone port\s*([0-9]+)\s*=\s*(CST MWS port|CST DS port)\s*([0-9]+|Zmin|Zmax)\s*\(\"(.*)\"\)(\s*mode\s*([0-9]+))?.*
! Touchstone port assignment:
! Touchstone port 1 = CST MWS port 1 ("")
! Touchstone port 2 = CST MWS port 2 ("")
! Default impedance is overridden by [Reference]
[Version] 2.0
# GHz S DB R 48.1968
[Number of Ports] 2
[Two-Port Data Order] 21_12
[Reference]
48.1968 523.477 
[Number of Frequencies] 5002
[Network Data]
4                  -0.0787224672     -100.914324       -17.455455      168.061136      -17.4565765     -11.9443022    -0.0787154918      77.0366669
4.0016             -0.0790641616     -101.065449      -17.4367614      167.944013      -17.4378341     -12.0618026    -0.0791185448      76.9567211
4.0032             -0.0794075197      -101.21666      -17.4180599      167.826868      -17.4190855     -12.1793245    -0.0795220216      76.8766906
4.0048             -0.0797525538     -101.367958      -17.3993502        167.7097      -17.4003305     -12.2968685    -0.0799259185      76.7965751
4.0064             -0.0800992763     -101.519343      -17.3806323      167.592509      -17.3815689     -12.4144354    -0.0803302323      76.7163742
4.008              -0.0804476999     -101.670814      -17.3619059      167.475294      -17.3628005     -12.5320258      -0.08073496      76.6360876
4.0096             -0.0807978371     -101.822373       -17.343171      167.358053      -17.3440252     -12.6496404     -0.081140099       76.555715
4.0112             -0.0811497005     -101.974019      -17.3244273      167.240786      -17.3252427       -12.76728    -0.0815456473       76.475256
4.0128             -0.0815033028     -102.125752      -17.3056747      167.123492       -17.306453     -12.8849454    -0.0819516031      76.3947102
4.0144             -0.0818586568     -102.277571       -17.286913       167.00617      -17.2876558     -13.0026373    -0.0823579653      76.3140774
4.016              -0.0822157752     -102.429478      -17.2681421      166.888818      -17.2688511     -13.1203566    -0.0827647329      76.2333572
4.0176              -0.082574671     -102.581471      -17.2493618      166.771437      -17.2500386      -13.238104    -0.0831719057      76.1525491
4.0192              -0.082935357     -102.733552      -17.2305719      166.654025      -17.2312181     -13.3558804    -0.0835794837      76.0716529
4.0208             -0.0832978461     -102.885719      -17.2117724       166.53658      -17.2123896     -13.4736867    -0.0839874676      75.9906683
4.0224             -0.0836621514     -103.037974      -17.1929631      166.419103      -17.1935528     -13.5915238    -0.0843958586      75.9095947
4.024              -0.0840282858     -103.190315      -17.1741438      166.301591      -17.1747077     -13.7093925    -0.0848046583      75.8284319
4.0256             -0.0843962624     -103.342744      -17.1553144      166.184044       -17.155854     -13.8272937    -0.0852138689      75.7471795
4.0272             -0.0847660943     -103.495259      -17.1364747      166.066461      -17.1369917     -13.9452284    -0.0856234931      75.6658371
4.0288             -0.0851377947     -103.647862      -17.1176247       165.94884      -17.1181205     -14.0631976    -0.0860335342      75.5844043
4.0304             -0.0855113767     -103.800551      -17.0987642      165.831181      -17.0992403     -14.1812022    -0.0864439961      75.5028809
4.032              -0.0858868534     -103.953328       -17.079893      165.713482       -17.080351     -14.2992432    -0.0868548832      75.4212663
4.0336             -0.0862642382     -104.106191       -17.061011      165.595742      -17.0614525     -14.4173216    -0.0872662007      75.3395602
4.0352             -0.0866435442     -104.259142      -17.0421182       165.47796      -17.0425445     -14.5354384    -0.0876779542      75.2577622
4.0368             -0.0870247847      -104.41218      -17.0232143      165.360135      -17.0236271     -14.6535948      -0.08809015      75.1758719
4.0384              -0.087407973     -104.565305      -17.0042993      165.242265      -17.0046999     -14.7717916    -0.0885027952       75.093889
4.04               -0.0877931224     -104.718517      -16.9853731       165.12435       -16.985763     -14.8900301    -0.0889158974       75.011813
4.0416             -0.0881802461     -104.871816      -16.9664355      165.006388      -16.9668162     -15.0083113    -0.0893294649      74.9296436
4.0432             -0.0885693576     -105.025203      -16.9474864      164.888377      -16.9478593     -15.1266363    -0.0897435068      74.8473803
4.0448               -0.08896047     -105.178677      -16.9285258      164.770317      -16.9288923     -15.2450062    -0.0901580328      74.7650227
4.0464             -0.0893535968     -105.332238      -16.9095535      164.652206       -16.909915     -15.3634223    -0.0905730533      74.6825705
4.048              -0.0897487512     -105.485886      -16.8905694      164.534043      -16.8909273     -15.4818856    -0.0909885797      74.6000233
4.0496             -0.0901459466     -105.639621      -16.8715734      164.415827      -16.8719291     -15.6003973    -0.0914046239      74.5173805
4.0512             -0.0905451963     -105.793444      -16.8525656      164.297556      -16.8529203     -15.7189586    -0.0918211986      74.4346419
4.0528             -0.0909465136     -105.947355      -16.8335456      164.179228      -16.8339008     -15.8375708    -0.0922383174       74.351807
4.0544             -0.0913499117     -106.101352      -16.8145136      164.060843      -16.8148704      -15.956235    -0.0926559947      74.2688754
4.056              -0.0917554041     -106.255437      -16.7954694        163.9424      -16.7958292     -16.0749525    -0.0930742457      74.1858467
4.0576             -0.0921630038      -106.40961      -16.7764128      163.823896      -16.7767769     -16.1937245    -0.0934930864      74.1027205
4.0592             -0.0925727242      -106.56387       -16.757344       163.70533      -16.7577136     -16.3125523    -0.0939125336      74.0194963
4.0608             -0.0929845784     -106.718218      -16.7382627      163.586701      -16.7386391     -16.4314371    -0.0943326051      73.9361738
4.0624             -0.0933985797     -106.872654       -16.719169      163.468008      -16.7195533     -16.5503803    -0.0947533197      73.8527524
4.064              -0.0938147411     -107.027177      -16.7000628      163.349248      -16.7004562     -16.6693832    -0.0951746967      73.7692319
4.0656             -0.0942330758     -107.181788       -16.680944      163.230422      -16.6813477      -16.788447    -0.0955967566      73.6856118
4.0672             -0.0946535969     -107.336486      -16.6618125      163.111526      -16.6622276     -16.9075731     -0.096019521      73.6018916
4.0688             -0.0950763173     -107.491273      -16.6426684       162.99256      -16.6430961     -17.0267628     -0.096443012      73.5180709
4.0704             -0.0955012501     -107.646147      -16.6235116      162.873522      -16.6239529     -17.1460175     -0.096867253      73.4341494
4.072              -0.0959284081      -107.80111       -16.604342      162.754411       -16.604798     -17.2653385    -0.0972922682      73.3501265
4.0736             -0.0963578043      -107.95616      -16.5851597      162.635225      -16.5856315     -17.3847272     -0.097718083      73.2660019
4.0752             -0.0967894514     -108.111299      -16.5659646      162.515963      -16.5664531     -17.5041849    -0.0981447236      73.1817751
4.0768             -0.0972233622     -108.266526      -16.5467567      162.396623      -16.5472629      -17.623713    -0.0985722173      73.0974458
4.0784             -0.0976595493     -108.421841       -16.527536      162.277204      -16.5280609     -17.7433129    -0.0990005923      73.0130134
4.08               -0.0980980254     -108.577244      -16.5083024      162.157704       -16.508847      -17.862986    -0.0994298781      72.9284777
4.0816             -0.0985388031     -108.732736       -16.489056      162.038122      -16.4896212     -17.9827337     -0.099860105       72.843838
4.0832             -0.0989818947     -108.888317      -16.4697968      161.918456      -16.4703834     -18.1025574     -0.100291305      72.7590941
4.0848             -0.0994273126     -109.043986      -16.4505247      161.798704      -16.4511336     -18.2224585     -0.100723509      72.6742455
4.0864             -0.0998750692     -109.199743      -16.4312398      161.678866      -16.4318719     -18.3424384     -0.101156753      72.5892918
4.088               -0.100325177      -109.35559      -16.4119422       161.55894      -16.4125981     -18.4624986      -0.10159107      72.5042326
4.0896              -0.100777647     -109.511526      -16.3926317      161.438923      -16.3933124     -18.5826403     -0.102026497      72.4190674
4.0912              -0.101232492      -109.66755      -16.3733086      161.318815      -16.3740146     -18.7028651      -0.10246307      72.3337959
4.0928              -0.101689725     -109.823664      -16.3539727      161.198614      -16.3547049     -18.8231744     -0.102900828      72.2484176
4.0944              -0.102149356     -109.979867      -16.3346241      161.078319      -16.3353831     -18.9435696     -0.103339809      72.1629321
4.096               -0.102611397     -110.136159       -16.315263      160.957928      -16.3160494      -19.064052     -0.103780055       72.077339
4.0976              -0.103075861     -110.292541      -16.2958892       160.83744      -16.2967038     -19.1846232     -0.104221606       71.991638
4.0992              -0.103542758     -110.449013       -16.276503      160.716853      -16.2773462     -19.3052844     -0.104664505      71.9058286
4.1008                -0.1040121     -110.605574      -16.2571043      160.596165      -16.2579767     -19.4260372     -0.105108797      71.8199103
4.1024              -0.104483898     -110.762225      -16.2376933      160.475376      -16.2385953     -19.5468828     -0.105554525      71.7338829
4.104               -0.104958164     -110.918967      -16.2182699      160.354483      -16.2192021     -19.6678228     -0.106001737       71.647746
4.1056              -0.105434908     -111.075798      -16.1988343      160.233486      -16.1997971     -19.7888585     -0.106450479      71.5614991
4.1072              -0.105914141     -111.232721      -16.1793866      160.112382      -16.1803804     -19.9099912       -0.1069008      71.4751418
4.1088              -0.106395874     -111.389733      -16.1599268      159.991171      -16.1609521     -20.0312223      -0.10735275      71.3886739
4.1104              -0.106880118     -111.546836      -16.1404551      159.869851      -16.1415121     -20.1525531     -0.107806379      71.3020949
4.112               -0.107366883     -111.704031      -16.1209716      159.748421      -16.1220606     -20.2739851     -0.108261739      71.2154044
4.1136               -0.10785618     -111.861316      -16.1014763      159.626879      -16.1025976     -20.3955196     -0.108718884      71.1286021
4.1152              -0.108348019     -112.018693      -16.0819695      159.505224      -16.0831233     -20.5171577     -0.109177866      71.0416877
4.1168               -0.10884241     -112.176161      -16.0624511      159.383455      -16.0636377      -20.638901     -0.109638743      70.9546608
4.1184              -0.109339362     -112.333721      -16.0429214       159.26157      -16.0441408     -20.7607505     -0.110101569      70.8675211
4.12                -0.109838887     -112.491372      -16.0233805      159.139568      -16.0246329     -20.8827076     -0.110566402      70.7802682
4.1216              -0.110340993     -112.649116      -16.0038284      159.017448      -16.0051139     -21.0047736     -0.111033302      70.6929018
4.1232               -0.11084569     -112.806952      -15.9842655      158.895208       -15.985584     -21.1269496     -0.111502327      70.6054216
4.1248              -0.111352988     -112.964881      -15.9646917      158.772848      -15.9660434     -21.2492368     -0.111973538      70.5178272
4.1264              -0.111862896     -113.122902      -15.9451073      158.650366      -15.9464921     -21.3716365     -0.112446998      70.4301185
4.128               -0.112375423     -113.281017      -15.9255125      158.527761      -15.9269302     -21.4941498     -0.112922767      70.3422951
4.1296              -0.112890577     -113.439225      -15.9059073      158.405032      -15.9073579     -21.6167777     -0.113400911      70.2543567
4.1312              -0.113408369     -113.597526      -15.8862921      158.282178      -15.8877754     -21.7395214     -0.113881493       70.166303
4.1328              -0.113928807     -113.755921      -15.8666668      158.159198      -15.8681826      -21.862382     -0.114364579      70.0781338
4.1344              -0.114451899     -113.914411      -15.8470318      158.036091      -15.8485799     -21.9853605     -0.114850235      69.9898489
4.136               -0.114977654     -114.072995      -15.8273873      157.912855      -15.8289674     -22.1084578     -0.115338529       69.901448
4.1376               -0.11550608     -114.231673      -15.8077334      157.789491      -15.8093451      -22.231675     -0.115829527      69.8129308
4.1392              -0.116037187     -114.390446      -15.7880703      157.665997      -15.7897133      -22.355013     -0.116323299      69.7242972
4.1408              -0.116570981     -114.549315      -15.7683982      157.542372      -15.7700722     -22.4784727     -0.116819914       69.635547
4.1424              -0.117107471     -114.708279      -15.7487173      157.418616      -15.7504218     -22.6020548     -0.117319442      69.5466799
4.144               -0.117646665      -114.86734      -15.7290279      157.294727      -15.7307624     -22.7257604     -0.117821953      69.4576959
4.1456              -0.118188571     -115.026496      -15.7093302      157.170706      -15.7110941     -22.8495901     -0.118327518      69.3685947
4.1472              -0.118733196     -115.185749      -15.6896243      157.046551      -15.6914172     -22.9735446     -0.118836209      69.2793762
4.1488              -0.119280549     -115.345099      -15.6699106      156.922262      -15.6717317     -23.0976246     -0.119348097      69.1900402
4.1504              -0.119830637     -115.504547      -15.6501892      156.797838       -15.652038     -23.2218309     -0.119863254      69.1005867
4.152               -0.120383468     -115.664092      -15.6304604      156.673279      -15.6323362     -23.3461639     -0.120381753      69.0110155
4.1536              -0.120952369     -115.823734      -15.6107244      156.548585      -15.6126264     -23.4706242     -0.120903665      68.9213265
4.1552              -0.121524028     -115.983475      -15.5909815      156.423755      -15.5929089     -23.5952123     -0.121429064      68.8315198
4.1568              -0.122097821     -116.143315      -15.5712318      156.298788      -15.5731839     -23.7199286     -0.121958021      68.7415952
4.1584              -0.122673734     -116.303254      -15.5514757      156.173686      -15.5534516     -23.8447735      -0.12249061      68.6515527
4.16                -0.123251758     -116.463293      -15.5317134      156.048446      -15.5337122     -23.9697474     -0.123026901      68.5613922
4.1616              -0.123831882     -116.623432      -15.5119451       155.92307      -15.5139659     -24.0948504     -0.123566967      68.4711139
4.1632              -0.124414098     -116.783671      -15.4921711      155.797558      -15.4942129     -24.2200829     -0.124110878      68.3807176
4.1648              -0.124998398     -116.944012      -15.4723916      155.671909      -15.4744534     -24.3454449     -0.124658706      68.2902035
4.1664              -0.125584776     -117.104454      -15.4526069      155.546123      -15.4546877     -24.4709366     -0.125210519      68.1995715
4.168               -0.126173228     -117.264998      -15.4328172      155.420201      -15.4349159     -24.5965579     -0.125766387      68.1088218
4.1696               -0.12676375     -117.425644      -15.4130228      155.294142      -15.4151383     -24.7223089     -0.126326379      68.0179545
4.1712               -0.12735634     -117.586393       -15.393224      155.167948       -15.395355     -24.8481894     -0.126890559      67.9269697
4.1728              -0.127950998     -117.747246       -15.373421      155.041619      -15.3755664     -24.9741991     -0.127458995      67.8358674
4.1744              -0.128547725     -117.908202       -15.353614      154.915155      -15.3557725      -25.100338      -0.12803175       67.744648
4.176               -0.129146524     -118.069263      -15.3338032      154.788556      -15.3359737     -25.2266057     -0.128608887      67.6533114
4.1776                -0.1297474     -118.230428      -15.3139891      154.661824      -15.3161701     -25.3530017     -0.129190466       67.561858
4.1792               -0.13035036     -118.391699      -15.2941716      154.534959       -15.296362     -25.4795257     -0.129776546       67.470288
4.1808              -0.130955413     -118.553076      -15.2743512      154.407962      -15.2765495     -25.6061771     -0.130367183      67.3786015
4.1824              -0.131562568     -118.714559      -15.2545281      154.280834      -15.2567328     -25.7329552     -0.130962431      67.2867989
4.184                -0.13217184     -118.876149      -15.2347024      154.153575      -15.2369122     -25.8598595     -0.131562343      67.1948804
4.1856              -0.132783243     -119.037847      -15.2148744      154.026188      -15.2170878     -25.9868891     -0.132166966      67.1028464
4.1872              -0.133396795     -119.199653      -15.1950444      153.898672      -15.1972598     -26.1140433     -0.132776346      67.0106971
4.1888              -0.134012515     -119.361567      -15.1752124      153.771029      -15.1774285     -26.2413211     -0.133390527      66.9184329
4.1904              -0.134630426     -119.523591      -15.1553789      153.643261       -15.157594     -26.3687216     -0.134009546      66.8260541
4.192               -0.135250553     -119.685724      -15.1355438      153.515369      -15.1377564     -26.4962436      -0.13463344      66.7335612
4.1936              -0.135872923     -119.847968      -15.1157075      153.387355       -15.117916     -26.6238861      -0.13526224      66.6409545
4.1952              -0.136497566     -120.010322      -15.0958701      153.259219      -15.0980728     -26.7516479     -0.135895973      66.5482345
4.1968              -0.137124516     -120.172788      -15.0760317      153.130964      -15.0782271     -26.8795276     -0.136534662      66.4554016
4.1984              -0.137753808     -120.335366      -15.0561926      153.002592       -15.058379      -27.007524     -0.137178325      66.3624562
4.2                 -0.138385481     -120.498057      -15.0363529      152.874103      -15.0385285     -27.1356355     -0.137826975      66.2693989
4.2016              -0.139019579     -120.660861      -15.0165127      152.745501      -15.0186759     -27.2638607     -0.138480619      66.1762301
4.2032              -0.139656144     -120.823778      -14.9966721      152.616787      -14.9988213     -27.3921981      -0.13913926      66.0829503
