! TOUCHSTONE file generated by CST MICROWAVE STUDIO
! Date and time: Wed Jan 22 20:11:41 2025
! Project name: NUEVA_TRANSICION_CORTO.cst
! Parameters = {DespTor=4.318; H=17; Hcono=2.59394; Hstep1=13.4144; Hstep2=6.31893; Hstep3=0; Htuerca=0.1; L=55; Lback=11; Ldielectrico=9.525; Lstep1=12.9914; Lstep2=10.8318; Lstep3=9.99957; Ltor=4; Nsegments=0; Ragujero=1.4615; Rcono1=4.39874; Rcono2=2.78582; Rext=2.055; Rint=0.635; Rtor=1.275; Rtuerca=2.451; Target=-30; W=34; lopt1=0.632257; lopt2=6.83182; lopt3=5.99957; rrcono2=2.78582; thickness=2; topthickness=3}
! Header version: 2018
! Port assignment regex: !\s*Touchstone port\s*([0-9]+)\s*=\s*(CST MWS port|CST DS port)\s*([0-9]+|Zmin|Zmax)\s*\(\"(.*)\"\)(\s*mode\s*([0-9]+))?.*
! Touchstone port assignment:
! Touchstone port 1 = CST MWS port 1 ("")
! Touchstone port 2 = CST MWS port 2 ("")
# GHz Y MA R 1
4                   0.0249475577      90.0000572   0.000847171951      89.9999983   0.000847062576      89.9945605    0.00150346534     -90.0000028
4.0016              0.0250140637      90.0000936   0.000849883391       89.998604   0.000849778433      89.9927887     0.0015011875     -89.9995593
4.0032              0.0250808166      90.0001291   0.000852608816      89.9972691    0.00085250814      89.9910766    0.00149890912     -89.9991247
4.0048              0.0251478181      90.0001637    0.00085534834      89.9959929   0.000855251809      89.9894239    0.00149663019     -89.9986989
4.0064              0.0252150698      90.0001974   0.000858102074      89.9947747    0.00085800955      89.9878299    0.00149435067     -89.9982822
4.008               0.0252825732      90.0002301   0.000860870133      89.9936138   0.000860781476      89.9862941    0.00149207057     -89.9978746
4.0096              0.0253503299      90.0002619    0.00086365263      89.9925095   0.000863567703      89.9848159    0.00148978987     -89.9974762
4.0112              0.0254183415      90.0002928   0.000866449681      89.9914609   0.000866368343      89.9833947    0.00148750855     -89.9970873
4.0128              0.0254866098      90.0003227   0.000869261402      89.9904673   0.000869183513        89.98203     0.0014852266     -89.9967078
4.0144              0.0255551363      90.0003517   0.000872087912      89.9895279    0.00087201333      89.9807209    0.00148294401     -89.9963378
4.016               0.0256239228      90.0003798   0.000874929326       89.988642    0.00087485791       89.979467    0.00148066076     -89.9959776
4.0176              0.0256929708      90.0004069   0.000877785766      89.9878086   0.000877717372      89.9782676    0.00147837683     -89.9956271
4.0192              0.0257622822      90.0004331   0.000880657351       89.987027   0.000880591837      89.9771219    0.00147609222     -89.9952865
4.0208              0.0258318585      90.0004583   0.000883544201      89.9862962   0.000883481423      89.9760293     0.0014738069     -89.9949559
4.0224              0.0259017017      90.0004826   0.000886446439      89.9856155   0.000886386253      89.9749891    0.00147152087     -89.9946354
4.024               0.0259718133       90.000506   0.000889364188      89.9849839    0.00088930645      89.9740005     0.0014692341     -89.9943249
4.0256              0.0260421952      90.0005284   0.000892297571      89.9844006   0.000892242135      89.9730629    0.00146694659     -89.9940247
4.0272              0.0261128491      90.0005499   0.000895246712      89.9838646   0.000895193434      89.9721754    0.00146465831     -89.9937349
4.0288              0.0261837768      90.0005704   0.000898211739       89.983375   0.000898160472      89.9713373    0.00146236925     -89.9934554
4.0304              0.0262549802        90.00059   0.000901192777      89.9829309   0.000901143376      89.9705478     0.0014600794     -89.9931863
4.032                0.026326461      90.0006086   0.000904189953      89.9825312   0.000904142273      89.9698061    0.00145778874     -89.9929278
4.0336              0.0263982212      90.0006263   0.000907203397      89.9821751    0.00090715729      89.9691115    0.00145549725     -89.9926799
4.0352              0.0264702625      90.0006431   0.000910233238      89.9818616   0.000910188558       89.968463    0.00145320492     -89.9924426
4.0368              0.0265425869       90.000659   0.000913279606      89.9815896   0.000913236207      89.9678599    0.00145091173      -89.992216
4.0384              0.0266151962      90.0006739   0.000916342633      89.9813582   0.000916300368      89.9673013    0.00144861767     -89.9920002
4.04                0.0266880925      90.0006879   0.000919422451      89.9811664   0.000919381174      89.9667863    0.00144632272     -89.9917952
4.0416              0.0267612775       90.000701   0.000922519194       89.981013   0.000922478759      89.9663141    0.00144402686      -89.991601
4.0432              0.0268347533      90.0007133   0.000925632996      89.9808971   0.000925593256      89.9658837    0.00144173008     -89.9914177
4.0448              0.0269085218      90.0007246   0.000928763992      89.9808176   0.000928724802      89.9654943    0.00143943235     -89.9912453
4.0464               0.026982585       90.000735   0.000931912319      89.9807735   0.000931873532       89.965145    0.00143713368     -89.9910838
4.048                0.027056945      90.0007445   0.000935078114      89.9807636   0.000935039586      89.9648348    0.00143483402     -89.9909333
4.0496              0.0271316037      90.0007532   0.000938261516      89.9807869   0.000938223101      89.9645628    0.00143253338     -89.9907938
4.0512              0.0272065632       90.000761   0.000941462664      89.9808423   0.000941424217      89.9643281    0.00143023173     -89.9906652
4.0528              0.0272818256      90.0007679   0.000944681698      89.9809286   0.000944643075      89.9641296    0.00142792906     -89.9905476
4.0544               0.027357393       90.000774    0.00094791876      89.9810448   0.000947879818      89.9639665    0.00142562534      -89.990441
4.056               0.0274332675      90.0007793   0.000951173991      89.9811898   0.000951134587      89.9638377    0.00142332057     -89.9903453
4.0576              0.0275094512      90.0007837   0.000954447537      89.9813624   0.000954407528      89.9637423    0.00142101471     -89.9902607
4.0592              0.0275859463      90.0007873    0.00095773954      89.9815614   0.000957698786      89.9636793    0.00141870777     -89.9901869
4.0608              0.0276627549      90.0007902   0.000961050147      89.9817858   0.000961008507      89.9636476    0.00141639971     -89.9901241
4.0624              0.0277398792      90.0007922   0.000964379504      89.9820344   0.000964336838      89.9636464    0.00141409053     -89.9900721
4.064               0.0278173216      90.0007935   0.000967727759      89.9823059   0.000967683928      89.9636744    0.00141178019     -89.9900309
4.0656              0.0278950841       90.000794    0.00097109506      89.9825994   0.000971049926      89.9637308    0.00140946869     -89.9900005
4.0672              0.0279731691      90.0007938   0.000974481557      89.9829135   0.000974434984      89.9638144    0.00140715601     -89.9899809
4.0688              0.0280515789      90.0007929   0.000977887401      89.9832472   0.000977839254      89.9639243    0.00140484213     -89.9899719
4.0704              0.0281303157      90.0007913   0.000981312744      89.9835992   0.000981262887      89.9640594    0.00140252703     -89.9899735
4.072               0.0282093819      90.0007889   0.000984757738      89.9839683    0.00098470604      89.9642187    0.00140021069     -89.9899856
4.0736                0.02828878       90.000786   0.000988222537      89.9843535   0.000988168866       89.964401     0.0013978931     -89.9900082
4.0752              0.0283685121      90.0007823   0.000991707296      89.9847535   0.000991651524      89.9646055    0.00139557423      -89.990041
4.0768              0.0284485809      90.0007781   0.000995212173      89.9851671   0.000995154169      89.9648309    0.00139325407     -89.9900841
4.0784              0.0285289886      90.0007732   0.000998737322      89.9855932   0.000998676962      89.9650762     0.0013909326     -89.9901373
4.08                0.0286097378      90.0007677     0.0010022829      89.9860305    0.00100222006      89.9653404    0.00138860981     -89.9902006
4.0816               0.028690831      90.0007617    0.00100584908      89.9864779    0.00100578363      89.9656224    0.00138628566     -89.9902736
4.0832              0.0287722706      90.0007551      0.001009436      89.9869343    0.00100936783      89.9659211    0.00138396015     -89.9903565
4.0848              0.0288540592      90.0007481    0.00101304384      89.9873984    0.00101297283      89.9662355    0.00138163326     -89.9904489
4.0864              0.0289361994      90.0007405    0.00101667276      89.9878691    0.00101659878      89.9665645    0.00137930496     -89.9905508
4.088               0.0290186938      90.0007324    0.00102032291      89.9883452    0.00102024586      89.9669071    0.00137697524     -89.9906619
4.0896               0.029101545      90.0007239    0.00102399448      89.9888255    0.00102391424      89.9672622    0.00137464409     -89.9907822
4.0912              0.0291847557       90.000715    0.00102768761       89.989309    0.00102760407      89.9676287    0.00137231147     -89.9909114
4.0928              0.0292683284      90.0007057    0.00103140248      89.9897944    0.00103131554      89.9680056    0.00136997738     -89.9910493
4.0944              0.0293522661       90.000696    0.00103513926      89.9902807    0.00103504881      89.9683918    0.00136764179     -89.9911958
4.096               0.0294365713       90.000686    0.00103889812      89.9907667    0.00103880406      89.9687863    0.00136530469     -89.9913506
4.0976              0.0295212469      90.0006757    0.00104267923      89.9912512    0.00104258145      89.9691881    0.00136296605     -89.9915136
4.0992              0.0296062956      90.0006651    0.00104648275      89.9917333    0.00104638118      89.9695961    0.00136062587     -89.9916844
4.1008              0.0296917204      90.0006542    0.00105030888      89.9922117     0.0010502034      89.9700094    0.00135828411     -89.9918629
4.1024               0.029777524      90.0006432    0.00105415777      89.9926855     0.0010540483      89.9704268    0.00135594076     -89.9920488
4.104               0.0298637094      90.0006319     0.0010580296      89.9931535    0.00105791606      89.9708475    0.00135359581     -89.9922419
4.1056              0.0299502795      90.0006205    0.00106192456      89.9936147    0.00106180686      89.9712704    0.00135124923     -89.9924418
4.1072              0.0300372373      90.0006089    0.00106584282      89.9940681    0.00106572088      89.9716946    0.00134890101     -89.9926484
4.1088              0.0301245857      90.0005973    0.00106978456      89.9945127     0.0010696583      89.9721191    0.00134655113     -89.9928613
4.1104              0.0302123278      90.0005856    0.00107374996      89.9949474    0.00107361931      89.9725429    0.00134419957     -89.9930803
4.112               0.0303004668      90.0005738    0.00107773921      89.9953714     0.0010776041      89.9729651     0.0013418463      -89.993305
4.1136              0.0303890056      90.0005621    0.00108175249      89.9957835    0.00108161285      89.9733848    0.00133949132     -89.9935351
4.1152              0.0304779474      90.0005504    0.00108578997       89.996183    0.00108564575      89.9738011    0.00133713461     -89.9937703
4.1168              0.0305672954      90.0005388    0.00108985186       89.996569    0.00108970299      89.9742132    0.00133477614     -89.9940103
4.1184              0.0306570528      90.0005273    0.00109393834      89.9969404    0.00109378477      89.9746201    0.00133241591     -89.9942547
4.12                0.0307472229      90.0005159    0.00109804959      89.9972965    0.00109789128       89.975021    0.00133005388     -89.9945032
4.1216               0.030837809      90.0005047    0.00110218582      89.9976364    0.00110202271      89.9754152    0.00132769005     -89.9947554
4.1232              0.0309288144      90.0004938     0.0011063472      89.9979594    0.00110617927      89.9758017     0.0013253244     -89.9950109
4.1248              0.0310202424       90.000483    0.00111053394      89.9982647    0.00111036114      89.9761799     0.0013229569     -89.9952694
4.1264              0.0311120965      90.0004726    0.00111474624      89.9985514    0.00111456853       89.976549    0.00132058755     -89.9955305
4.128               0.0312043801      90.0004625    0.00111898428       89.998819    0.00111880165      89.9769082    0.00131821632     -89.9957938
4.1296              0.0312970967      90.0004527    0.00112324826      89.9990668    0.00112306069      89.9772569     0.0013158432     -89.9960588
4.1312              0.0313902499      90.0004433     0.0011275384      89.9992941    0.00112734586      89.9775945    0.00131346817     -89.9963253
4.1328              0.0314838432      90.0004343    0.00113185488      89.9995002    0.00113165737      89.9779202    0.00131109121     -89.9965926
4.1344              0.0315778802      90.0004259    0.00113619792      89.9996847    0.00113599543      89.9782335    0.00130871232     -89.9968605
4.136               0.0316723647      90.0004178    0.00114056772       89.999847    0.00114036025      89.9785338    0.00130633146     -89.9971285
4.1376              0.0317673003      90.0004104    0.00114496448      89.9999867    0.00114475204      89.9788205    0.00130394863     -89.9973961
4.1392              0.0318626908      90.0004035    0.00114938842      90.0001032    0.00114917102      89.9790932    0.00130156381     -89.9976628
4.1408              0.0319585399      90.0003971    0.00115383975      90.0001962     0.0011536174      89.9793514    0.00129917699     -89.9979284
4.1424              0.0320548516      90.0003915    0.00115831868      90.0002653     0.0011580914      89.9795947    0.00129678815     -89.9981922
4.144               0.0321516297      90.0003864    0.00116282542      90.0003102    0.00116259324      89.9798226    0.00129439727     -89.9984538
4.1456              0.0322488782      90.0003821     0.0011673602      90.0003307    0.00116712315      89.9800348    0.00129200434     -89.9987127
4.1472              0.0323466011      90.0003785    0.00117192322      90.0003264    0.00117168136       89.980231    0.00128960934     -89.9989685
4.1488              0.0324448024      90.0003756    0.00117651473      90.0002974    0.00117626808      89.9804109    0.00128721226     -89.9992207
4.1504              0.0325434862      90.0003736    0.00118113492      90.0002433    0.00118088355      89.9805744    0.00128481309     -89.9994688
4.152               0.0326426566      90.0003723    0.00118578404      90.0001642      0.001185528      89.9807211    0.00128241182     -89.9997124
4.1536              0.0327423169      90.0002761    0.00119046319       89.999991    0.00119020254      89.9807818    0.00128000837     -89.9999498
4.1552              0.0328424723      90.0001805    0.00119517172      89.9997922    0.00119490653      89.9808252    0.00127760279     -90.0001816
4.1568              0.0329431271      90.0000901    0.00119990983      89.9995715    0.00119964019      89.9808545    0.00127519507     -90.0004075
4.1584              0.0330442857      90.0000051    0.00120467775       89.999329    0.00120440374      89.9808698    0.00127278518     -90.0006268
4.16                0.0331459525      89.9999256    0.00120947572       89.999065    0.00120919743      89.9808713    0.00127037313     -90.0008392
4.1616               0.033248132      89.9998518    0.00121430398        89.99878     0.0012140215      89.9808592    0.00126795889     -90.0010441
4.1632              0.0333508287      89.9997839    0.00121916277      89.9984744    0.00121887621      89.9808337    0.00126554245     -90.0012411
4.1648              0.0334540471      89.9997221    0.00122405233      89.9981486     0.0012237618      89.9807952    0.00126312381     -90.0014296
4.1664              0.0335577919      89.9996663    0.00122897291      89.9978033    0.00122867854       89.980744    0.00126070296     -90.0016094
4.168               0.0336620679      89.9996168    0.00123392477      89.9974391    0.00123362667      89.9806806    0.00125827987     -90.0017798
4.1696              0.0337668798      89.9995737    0.00123890815      89.9970565    0.00123860646      89.9806053    0.00125585455     -90.0019405
4.1712              0.0338722323       89.999537    0.00124392332      89.9966564    0.00124361817      89.9805187    0.00125342698      -90.002091
4.1728              0.0339781304      89.9995069    0.00124897053      89.9962395    0.00124866207      89.9804213    0.00125099715     -90.0022308
4.1744               0.034084579      89.9994834    0.00125405005      89.9958067    0.00125373843      89.9803138    0.00124856506     -90.0023597
4.176               0.0341915832      89.9994666    0.00125916214      89.9953587    0.00125884753      89.9801967    0.00124613068     -90.0024771
4.1776              0.0342991479      89.9994565    0.00126430708      89.9948967    0.00126398965      89.9800707    0.00124369402     -90.0025827
4.1792              0.0344072784      89.9994532    0.00126948514      89.9944216    0.00126916506      89.9799367    0.00124125507     -90.0026761
4.1808              0.0345159797      89.9994566    0.00127469661      89.9939345    0.00127437405      89.9797953    0.00123881382      -90.002757
4.1824              0.0346252573      89.9994669    0.00127994176      89.9934365    0.00127961692      89.9796475    0.00123637025     -90.0028251
4.184               0.0347351163      89.9994838    0.00128522088      89.9929288    0.00128489395       89.979494    0.00123392437       -90.00288
4.1856              0.0348455622      89.9995075    0.00129053427      89.9924126    0.00129020545      89.9793359    0.00123147616     -90.0029215
4.1872              0.0349566005      89.9995379    0.00129588222      89.9918892    0.00129555172      89.9791741    0.00122902561     -90.0029493
4.1888              0.0350682366      89.9995749    0.00130126502        89.99136    0.00130093307      89.9790096    0.00122657273     -90.0029632
4.1904              0.0351804762      89.9996183      0.001306683      89.9908264     0.0013063498      89.9788435     0.0012241175     -90.0029631
4.192                0.035293325      89.9996682    0.00131213645      89.9902898    0.00131180225      89.9786769    0.00122165992     -90.0029486
4.1936              0.0354067886      89.9997244     0.0013176257      89.9897517    0.00131729072      89.9785109    0.00121919998     -90.0029198
4.1952              0.0355208728      89.9997866    0.00132315106      89.9892137    0.00132281555      89.9783467    0.00121673767     -90.0028766
4.1968              0.0356355837      89.9998548    0.00132871286      89.9886773    0.00132837707      89.9781856    0.00121427299     -90.0028188
4.1984               0.035750927      89.9999287    0.00133431144      89.9881443    0.00133397561      89.9780288    0.00121180594     -90.0027465
4.2                 0.0358669088      90.0000082    0.00133994712      89.9876163    0.00133961153      89.9778776     0.0012093365     -90.0026597
4.2016              0.0359835352      90.0000929    0.00134562026      89.9870951    0.00134528517      89.9777333    0.00120686467     -90.0025585
4.2032              0.0361008124      90.0001827    0.00135133121      89.9865823    0.00135099689      89.9775973    0.00120439045     -90.0024431
4.2048              0.0362187465      90.0002772    0.00135708032      89.9860799    0.00135674705       89.977471    0.00120191382     -90.0023136
