! TOUCHSTONE file generated by CST MICROWAVE STUDIO
! Date and time: Wed Jan 22 20:12:33 2025
! Project name: NUEVA_TRANSICION_CORTO.cst
! Parameters = {DespTor=4.318; H=17; Hcono=2.59394; Hstep1=13.4144; Hstep2=6.31893; Hstep3=0; Htuerca=0.1; L=55; Lback=11; Ldielectrico=9.525; Lstep1=12.9914; Lstep2=10.8318; Lstep3=9.99957; Ltor=4; Nsegments=0; Ragujero=1.4615; Rcono1=4.39874; Rcono2=2.78582; Rext=2.055; Rint=0.635; Rtor=1.275; Rtuerca=2.451; Target=-30; W=34; lopt1=0.632257; lopt2=6.83182; lopt3=5.99957; rrcono2=2.78582; thickness=2; topthickness=3}
! Header version: 2018
! Port assignment regex: !\s*Touchstone port\s*([0-9]+)\s*=\s*(CST MWS port|CST DS port)\s*([0-9]+|Zmin|Zmax)\s*\(\"(.*)\"\)(\s*mode\s*([0-9]+))?.*
! Touchstone port assignment:
! Touchstone port 1 = CST MWS port 1 ("")
! Touchstone port 2 = CST MWS port 2 ("")
[Version] 2.0
# GHz Y RI R 1
[Number of Ports] 2
[Two-Port Data Order] 21_12
[Number of Frequencies] 5002
[Network Data]
4                -2.49222926e-08    0.0249475577   2.54456378e-11  0.000847171951   8.04171132e-08  0.000847062573  -7.28445078e-11  -0.00150346534
4.0016           -4.08821955e-08    0.0250140637   2.07076575e-08   0.00084988339   1.06954577e-07  0.000849778427   1.15460226e-08   -0.0015011875
4.0032           -5.65285626e-08    0.0250808166   4.06384462e-08  0.000852608816   1.32771776e-07   0.00085250813   2.28997142e-08  -0.00149890912
4.0048           -7.18565423e-08    0.0251478181   5.98206767e-08  0.000855348338    1.5786941e-07  0.000855251794   3.39861414e-08  -0.00149663019
4.0064           -8.68613945e-08    0.0252150698   7.82575158e-08  0.000858102071   1.82248444e-07   0.00085800953   4.48032903e-08  -0.00149435067
4.008            -1.01538496e-07    0.0252825732   9.59524357e-08  0.000860870127   2.05910119e-07  0.000860781452   5.53492244e-08  -0.00149207057
4.0096           -1.15883346e-07    0.0253503299   1.12909217e-07  0.000863652623   2.28855949e-07  0.000863567672   6.56220865e-08  -0.00148978987
4.0112           -1.29891574e-07    0.0254183415   1.29131952e-07  0.000866449671   2.51087731e-07  0.000866368307   7.56201012e-08  -0.00148750855
4.0128           -1.43558945e-07    0.0254866098   1.44625048e-07   0.00086926139   2.72607543e-07   0.00086918347   8.53415775e-08   -0.0014852266
4.0144           -1.56881363e-07    0.0255551363   1.59393231e-07  0.000872087897   2.93417749e-07   0.00087201328   9.47849109e-08  -0.00148294401
4.016            -1.69854884e-07    0.0256239228   1.73441545e-07  0.000874929309   3.13521002e-07  0.000874857854   1.03948586e-07  -0.00148066075
4.0176           -1.82475715e-07    0.0256929708    1.8677536e-07  0.000877785746   3.32920247e-07  0.000877717309   1.12831178e-07  -0.00147837683
4.0192           -1.94740225e-07    0.0257622822    1.9940037e-07  0.000880657328   3.51618724e-07  0.000880591767   1.21431358e-07  -0.00147609221
4.0208           -2.06644953e-07    0.0258318585   2.11322599e-07  0.000883544176    3.6961997e-07  0.000883481346    1.2974789e-07   -0.0014738069
4.0224           -2.18186609e-07    0.0259017017   2.22548402e-07  0.000886446411   3.86927821e-07  0.000886386169   1.37779641e-07  -0.00147152086
4.024            -2.29362088e-07    0.0259718133   2.33084466e-07  0.000889364157   4.03546419e-07  0.000889306358   1.45525576e-07  -0.00146923409
4.0256           -2.40168471e-07    0.0260421952   2.42937812e-07  0.000892297538   4.19480207e-07  0.000892242036   1.52984766e-07  -0.00146694658
4.0272           -2.50603037e-07    0.0261128491   2.52115801e-07  0.000895246677   4.34733938e-07  0.000895193329   1.60156387e-07   -0.0014646583
4.0288           -2.60663266e-07    0.0261837768    2.6062613e-07  0.000898211701   4.49312672e-07   0.00089816036   1.67039725e-07  -0.00146236924
4.0304           -2.70346849e-07    0.0262549802   2.68476837e-07  0.000901192737   4.63221782e-07  0.000901143257   1.73634176e-07  -0.00146007939
4.032            -2.79651695e-07     0.026326461   2.75676303e-07  0.000904189911   4.76466953e-07  0.000904142147   1.79939252e-07  -0.00145778873
4.0336           -2.88575938e-07    0.0263982212    2.8223325e-07  0.000907203353   4.89054186e-07  0.000907157158    1.8595458e-07  -0.00145549724
4.0352           -2.97117943e-07    0.0264702625   2.88156744e-07  0.000910233192   5.00989795e-07   0.00091018842   1.91679908e-07  -0.00145320491
4.0368           -3.05276318e-07    0.0265425869   2.93456196e-07  0.000913279559   5.12280414e-07  0.000913236063   1.97115105e-07  -0.00145091172
4.0384           -3.13049916e-07    0.0266151962   2.98141361e-07  0.000916342585   5.22932996e-07  0.000916300219   2.02260165e-07  -0.00144861766
4.04             -3.20437849e-07    0.0266880925   3.02222341e-07  0.000919422402   5.32954811e-07   0.00091938102   2.07115208e-07   -0.0014463227
4.0416           -3.27439488e-07    0.0267612775   3.05709582e-07  0.000922519143   5.42353449e-07  0.000922478599   2.11680484e-07  -0.00144402684
4.0432           -3.34054478e-07    0.0268347532   3.08613875e-07  0.000925632944   5.51136823e-07  0.000925593092   2.15956377e-07  -0.00144173006
4.0448           -3.40282744e-07    0.0269085218   3.10946357e-07   0.00092876394   5.59313165e-07  0.000928724633   2.19943405e-07  -0.00143943234
4.0464           -3.46124495e-07     0.026982585   3.12718507e-07  0.000931912267   5.66891026e-07   0.00093187336   2.23642223e-07  -0.00143713366
4.048            -3.51580237e-07     0.027056945   3.13942148e-07  0.000935078062   5.73879281e-07   0.00093503941   2.27053627e-07  -0.00143483401
4.0496           -3.56650776e-07    0.0271316037   3.14629445e-07  0.000938261463   5.80287122e-07  0.000938222921   2.30178555e-07  -0.00143253336
4.0512           -3.61337233e-07    0.0272065632   3.14792903e-07  0.000941462611   5.86124061e-07  0.000941424034   2.33018091e-07  -0.00143023171
4.0528           -3.65641043e-07    0.0272818256   3.14445363e-07  0.000944681645   5.91399928e-07   0.00094464289   2.35573466e-07  -0.00142792904
4.0544           -3.69563971e-07     0.027357393   3.13600004e-07  0.000947918708    5.9612487e-07   0.00094787963   2.37846063e-07  -0.00142562532
4.056            -3.73108112e-07    0.0274332675   3.12270337e-07   0.00095117394    6.0030935e-07  0.000951134398   2.39837417e-07  -0.00142332055
4.0576           -3.76275906e-07    0.0275094512   3.10470203e-07  0.000954447486   6.03964142e-07  0.000954407337   2.41549217e-07  -0.00142101469
4.0592           -3.79070143e-07    0.0275859463   3.08213772e-07  0.000957739491   6.07100332e-07  0.000957698594   2.42983312e-07  -0.00141870775
4.0608           -3.81493969e-07    0.0276627549   3.05515534e-07  0.000961050099   6.09729315e-07  0.000961008313    2.4414171e-07  -0.00141639969
4.0624           -3.83550893e-07    0.0277398792     3.023903e-07  0.000964379457    6.1186279e-07  0.000964336644   2.45026581e-07   -0.0014140905
4.064              -3.852448e-07    0.0278173216   2.98853193e-07  0.000967727713   6.13512759e-07  0.000967683733   2.45640261e-07  -0.00141178017
4.0656           -3.86579953e-07    0.0278950841    2.9491965e-07  0.000971095016   6.14691522e-07  0.000971049732   2.45985252e-07  -0.00140946867
4.0672              -3.87561e-07    0.0279731691   2.90605407e-07  0.000974481514   6.15411675e-07   0.00097443479   2.46064227e-07  -0.00140715599
4.0688           -3.88192985e-07    0.0280515788   2.85926502e-07   0.00097788736     6.156861e-07   0.00097783906   2.45880028e-07  -0.00140484211
4.0704           -3.88481352e-07    0.0281303157   2.80899263e-07  0.000981312704   6.15527967e-07  0.000981262694   2.45435673e-07  -0.00140252701
4.072            -3.88431952e-07    0.0282093819   2.75540304e-07  0.000984757699   6.14950726e-07  0.000984705848   2.44734353e-07  -0.00140021067
4.0736            -3.8805105e-07    0.0282887799   2.69866517e-07    0.0009882225     6.139681e-07  0.000988168676   2.43779438e-07  -0.00139789308
4.0752           -3.87345329e-07    0.0283685121   2.63895063e-07  0.000991707261    6.1259408e-07  0.000991651335   2.42574477e-07  -0.00139557421
4.0768             -3.863219e-07    0.0284485809   2.57643367e-07  0.000995212139   6.10842918e-07  0.000995153982     2.411232e-07  -0.00139325405
4.0784           -3.84988305e-07    0.0285289886   2.51129106e-07  0.000998737291   6.08729122e-07  0.000998676777   2.39429519e-07  -0.00139093258
4.08             -3.83352521e-07    0.0286097378   2.44370199e-07   0.00100228287   6.06267444e-07   0.00100221988    2.3749753e-07  -0.00138860979
4.0816           -3.81422967e-07     0.028690831   2.37384801e-07   0.00100584905   6.03472876e-07   0.00100578345   2.35331516e-07  -0.00138628564
4.0832           -3.79208509e-07    0.0287722706   2.30191291e-07   0.00100943598   6.00360641e-07   0.00100936765   2.32935946e-07  -0.00138396013
4.0848           -3.76718463e-07    0.0288540592   2.22808256e-07   0.00101304382    5.9694618e-07   0.00101297265   2.30315477e-07  -0.00138163324
4.0864           -3.73962596e-07    0.0289361994   2.15254488e-07   0.00101667274   5.93245149e-07   0.00101659861   2.27474956e-07  -0.00137930494
4.088            -3.70951137e-07    0.0290186938   2.07548963e-07   0.00102032289   5.89273402e-07   0.00102024569   2.24419418e-07  -0.00137697523
4.0896            -3.6769477e-07     0.029101545   1.99710834e-07   0.00102399446   5.85046984e-07   0.00102391407   2.21154092e-07  -0.00137464407
4.0912           -3.64204645e-07    0.0291847557   1.91759415e-07   0.00102768759   5.80582119e-07   0.00102760391   2.17684396e-07  -0.00137231145
4.0928           -3.60492372e-07    0.0292683284   1.83714167e-07   0.00103140247   5.75895198e-07   0.00103131538   2.14015941e-07  -0.00136997736
4.0944           -3.56570029e-07    0.0293522661   1.75594681e-07   0.00103513925   5.71002767e-07   0.00103504865   2.10154529e-07  -0.00136764177
4.096            -3.52450155e-07    0.0294365713   1.67420668e-07   0.00103889811    5.6592151e-07    0.0010388039   2.06106155e-07  -0.00136530467
4.0976           -3.48145757e-07    0.0295212469   1.59211934e-07   0.00104267921   5.60668242e-07    0.0010425813   2.01877007e-07  -0.00136296604
4.0992           -3.43670303e-07    0.0296062956    1.5098837e-07   0.00104648274   5.55259889e-07   0.00104638103   1.97473463e-07  -0.00136062585
4.1008           -3.39037724e-07    0.0296917204   1.42769931e-07   0.00105030887   5.49713474e-07   0.00105020325   1.92902094e-07  -0.00135828409
4.1024           -3.34262408e-07     0.029777524   1.34576617e-07   0.00105415776   5.44046103e-07   0.00105404816   1.88169659e-07  -0.00135594075
4.104            -3.29359201e-07    0.0298637094   1.26428456e-07    0.0010580296   5.38274945e-07   0.00105791592   1.83283108e-07   -0.0013535958
4.1056           -3.24343396e-07    0.0299502795   1.18345478e-07   0.00106192456    5.3241722e-07   0.00106180672   1.78249579e-07  -0.00135124922
4.1072           -3.19230732e-07    0.0300372373   1.10347703e-07   0.00106584282   5.26490175e-07   0.00106572075   1.73076396e-07    -0.001348901
4.1088           -3.14037388e-07    0.0301245857   1.02455109e-07   0.00106978456    5.2051107e-07   0.00106965817   1.67771068e-07  -0.00134655112
4.1104           -3.08779973e-07    0.0302123278    9.4687617e-08   0.00107374996   5.14497156e-07   0.00107361919   1.62341287e-07  -0.00134419956
4.112            -3.03475515e-07    0.0303004668   8.70650639e-08   0.00107773921   5.08465655e-07   0.00107760398   1.56794922e-07  -0.00134184629
4.1136           -2.98141457e-07    0.0303890056   7.96071781e-08   0.00108175248   5.02433743e-07   0.00108161273   1.51140023e-07  -0.00133949132
4.1152           -2.92795641e-07    0.0304779474   7.23335553e-08   0.00108578997   4.96418521e-07   0.00108564564   1.45384813e-07   -0.0013371346
4.1168           -2.87456297e-07    0.0305672954   6.52636317e-08   0.00108985186      4.90437e-07   0.00108970288   1.39537684e-07  -0.00133477614
4.1184           -2.82142027e-07    0.0306570528   5.84166568e-08   0.00109393834   4.84506071e-07   0.00109378467   1.33607197e-07   -0.0013324159
4.12             -2.76871794e-07    0.0307472229   5.18116662e-08   0.00109804959   4.78642486e-07   0.00109789118   1.27602073e-07  -0.00133005388
4.1216           -2.71664898e-07     0.030837809    4.5467452e-08   0.00110218582   4.72862834e-07   0.00110202261   1.21531195e-07  -0.00132769004
4.1232           -2.66540965e-07    0.0309288144   3.94025337e-08    0.0011063472   4.67183509e-07   0.00110617917   1.15403594e-07  -0.00132532439
4.1248            -2.6151992e-07    0.0310202424   3.36351272e-08   0.00111053394   4.61620691e-07   0.00111036104   1.09228452e-07   -0.0013229569
4.1264           -2.56621968e-07    0.0311120965   2.81831135e-08   0.00111474624   4.56190312e-07   0.00111456844    1.0301509e-07  -0.00132058754
4.128            -2.51867571e-07    0.0312043801   2.30640065e-08   0.00111898428   4.50908035e-07   0.00111880156   9.67729666e-08  -0.00131821631
4.1296            -2.4727742e-07    0.0312970967   1.82949193e-08   0.00112324826   4.45789219e-07    0.0011230606   9.05116658e-08  -0.00131584319
4.1312           -2.42872406e-07    0.0313902499   1.38925304e-08    0.0011275384   4.40848895e-07   0.00112734578   8.42408939e-08  -0.00131346816
4.1328           -2.38673595e-07    0.0314838432   9.87304873e-09   0.00113185488    4.3610173e-07   0.00113165729   7.79704694e-08  -0.00131109121
4.1344           -2.34702191e-07    0.0315778802   6.25217734e-09   0.00113619792   4.31562001e-07   0.00113599535   7.17103149e-08  -0.00130871231
4.136            -2.30979503e-07    0.0316723647   3.04507705e-09   0.00114056772   4.27243561e-07   0.00114036017   6.54704483e-08  -0.00130633146
4.1376            -2.2752691e-07    0.0317673003   2.66328722e-10   0.00114496448   4.23159806e-07   0.00114475196   5.92609729e-08  -0.00130394863
4.1392           -2.24365821e-07    0.0318626908  -2.07010525e-09   0.00114938842   4.19323642e-07   0.00114917094    5.3092067e-08  -0.00130156381
4.1408           -2.21517632e-07    0.0319585399  -3.95092003e-09   0.00115383975   4.15747451e-07   0.00115361732   4.69739734e-08  -0.00129917699
4.1424           -2.19003685e-07    0.0320548516  -5.36350844e-09   0.00115831868   4.12443059e-07   0.00115809133   4.09169873e-08  -0.00129678815
4.144            -2.16845219e-07    0.0321516297  -6.29600172e-09   0.00116282542   4.09421695e-07   0.00116259317   3.49314444e-08  -0.00129439727
4.1456           -2.15063321e-07    0.0322488782  -6.73731094e-09    0.0011673602    4.0669396e-07   0.00116712308    2.9027708e-08  -0.00129200434
4.1472           -2.13678873e-07    0.0323466011  -6.67716929e-09   0.00117192322    4.0426979e-07   0.00117168129   2.32161549e-08  -0.00128960934
4.1488           -2.12712501e-07    0.0324448024  -6.10617486e-09   0.00117651472   4.02158416e-07   0.00117626801   1.75071616e-08  -0.00128721226
4.1504           -2.12184511e-07    0.0325434862  -5.01583405e-09   0.00118113492   4.00368329e-07   0.00118088348   1.19110884e-08  -0.00128481309
4.152            -2.12114832e-07    0.0326426566  -3.39860564e-09   0.00118578404   3.98907241e-07   0.00118552793   6.43826431e-09  -0.00128241182
4.1536           -1.57773628e-07    0.0327423169   1.87953566e-10   0.00119046319   3.99217923e-07   0.00119020247    1.1218395e-09  -0.00128000837
4.1552           -1.03451995e-07    0.0328424723   4.33368102e-09   0.00119517172   3.99890751e-07   0.00119490647  -4.05021309e-09  -0.00127760279
4.1568           -5.17909443e-08    0.0329431271   8.97396976e-09   0.00119990983   4.00861847e-07   0.00119964012  -9.06887077e-09  -0.00127519507
4.1584           -2.91713394e-09    0.0330442857   1.41087974e-08   0.00120467775   4.02132116e-07   0.00120440367  -1.39241765e-08  -0.00127278518
4.16              4.30458499e-08    0.0331459525   1.97369917e-08   0.00120947572   4.03701514e-07   0.00120919736  -1.86062985e-08  -0.00127037313
4.1616            8.59778358e-08     0.033248132   2.58561924e-08   0.00121430398   4.05569023e-07   0.00121402143   -2.3105551e-08  -0.00126795889
4.1632            1.25762423e-07    0.0333508287   3.24628126e-08   0.00121916277   4.07732614e-07   0.00121887614  -2.74124166e-08  -0.00126554245
4.1648            1.62287355e-07    0.0334540471   3.95520019e-08   0.00122405233   4.10189219e-07   0.00122376174  -3.15175689e-08  -0.00126312381
4.1664            1.95444898e-07    0.0335577919   4.71176083e-08   0.00122897291   4.12934696e-07   0.00122867847  -3.54118962e-08  -0.00126070296
4.168             2.25132247e-07    0.0336620679   5.51521425e-08   0.00123392477   4.15963806e-07    0.0012336266  -3.90865266e-08  -0.00125827987
4.1696            2.51251935e-07    0.0337668798   6.36467419e-08   0.00123890815   4.19270176e-07   0.00123860639  -4.25328537e-08  -0.00125585455
4.1712            2.73712261e-07    0.0338722323   7.25911359e-08   0.00124392331   4.22846278e-07    0.0012436181  -4.57425637e-08  -0.00125342698
4.1728            2.92427734e-07    0.0339781304   8.19736127e-08   0.00124897052   4.26683397e-07     0.001248662  -4.87076625e-08  -0.00125099715
4.1744            3.07319526e-07     0.034084579   9.17809861e-08   0.00125405004   4.30771607e-07   0.00125373836  -5.14205055e-08  -0.00124856506
4.176             3.18315942e-07    0.0341915832   1.01998566e-07   0.00125916214   4.35099747e-07   0.00125884746  -5.38738269e-08  -0.00124613068
4.1776            3.25352907e-07    0.0342991479   1.12610126e-07   0.00126430708   4.39655398e-07   0.00126398957  -5.60607709e-08  -0.00124369402
4.1792            3.28374461e-07    0.0344072784   1.23597881e-07   0.00126948514   4.44424861e-07   0.00126916498  -5.79749237e-08  -0.00124125507
4.1808            3.27333271e-07    0.0345159797   1.34942457e-07    0.0012746966    4.4939314e-07   0.00127437397  -5.96103465e-08  -0.00123881381
4.1824            3.22191154e-07    0.0346252573   1.46622869e-07   0.00127994175   4.54543921e-07   0.00127961684  -6.09616096e-08  -0.00123637025
4.184             3.12919611e-07    0.0347351163   1.58616501e-07   0.00128522087   4.59859562e-07   0.00128489387  -6.20238277e-08  -0.00123392436
4.1856             2.9950038e-07    0.0348455622   1.70899087e-07   0.00129053426   4.65321078e-07   0.00129020537   -6.2792696e-08  -0.00123147615
4.1872            2.81925989e-07    0.0349566005   1.83444695e-07    0.0012958822   4.70908131e-07   0.00129555164  -6.32645273e-08  -0.00122902561
4.1888            2.60200331e-07    0.0350682366   1.96225716e-07   0.00130126501   4.76599026e-07   0.00130093298  -6.34362905e-08  -0.00122657273
4.1904            2.34339237e-07    0.0351804762   2.09212855e-07   0.00130668298   4.82370706e-07   0.00130634972  -6.33056496e-08   -0.0012241175
4.192             2.04371068e-07     0.035293325   2.22375125e-07   0.00131213643   4.88198752e-07   0.00131180216  -6.28710036e-08  -0.00122165992
4.1936            1.70337308e-07    0.0354067886   2.35679846e-07   0.00131762568    4.9405739e-07   0.00131729063  -6.21315281e-08  -0.00121919998
4.1952            1.32293162e-07    0.0355208728   2.49092648e-07   0.00132315103   4.99919495e-07   0.00132281545  -6.10872167e-08  -0.00121673767
4.1968            9.03081656e-08    0.0356355837   2.62577483e-07   0.00132871283   5.05756606e-07   0.00132837697  -5.97389242e-08  -0.00121427299
4.1984            4.44667886e-08     0.035750927    2.7609663e-07   0.00133431141   5.11538945e-07   0.00133397552  -5.80884097e-08  -0.00121180593
4.2              -5.13095307e-09    0.0358669088   2.89610721e-07   0.00133994709   5.17235434e-07   0.00133961143  -5.61383809e-08   -0.0012093365
4.2016           -5.83688905e-08    0.0359835352   3.03078761e-07   0.00134562023   5.22813729e-07   0.00134528507  -5.38925391e-08  -0.00120686467
4.2032           -1.15114096e-07    0.0361008124   3.16458159e-07   0.00135133117   5.28240248e-07   0.00135099679  -5.13556243e-08  -0.00120439044
