! TOUCHSTONE file generated by CST MICROWAVE STUDIO
! Date and time: Wed Jan 22 20:13:52 2025
! Project name: NUEVA_TRANSICION_CORTO.cst
! Parameters = {DespTor=4.318; H=17; Hcono=2.59394; Hstep1=13.4144; Hstep2=6.31893; Hstep3=0; Htuerca=0.1; L=55; Lback=11; Ldielectrico=9.525; Lstep1=12.9914; Lstep2=10.8318; Lstep3=9.99957; Ltor=4; Nsegments=0; Ragujero=1.4615; Rcono1=4.39874; Rcono2=2.78582; Rext=2.055; Rint=0.635; Rtor=1.275; Rtuerca=2.451; Target=-30; W=34; lopt1=0.632257; lopt2=6.83182; lopt3=5.99957; rrcono2=2.78582; thickness=2; topthickness=3}
! Header version: 2018
! Port assignment regex: !\s*Touchstone port\s*([0-9]+)\s*=\s*(CST MWS port|CST DS port)\s*([0-9]+|Zmin|Zmax)\s*\(\"(.*)\"\)(\s*mode\s*([0-9]+))?.*
! Touchstone port assignment:
! Touchstone port 1 = CST MWS port 1 ("")
! Touchstone port 2 = CST MWS port 2 ("")
[Version] 2.0
# GHz Z RI R 1
[Number of Ports] 2
[Two-Port Data Order] 21_12
[Number of Frequencies] 5002
[Network Data]
4                 3.15309006e-05     -39.3315832   1.81751426e-05     -22.1625423   -0.00208492304     -22.1596809   -0.00120680779      652.643541
4.0016            5.39864636e-05     -39.2231343  -0.000681277894     -22.2058139   -0.00293472624     -22.2030714     0.0030590293      653.569242
4.0032               7.57585e-05     -39.1148468   -0.00135730484     -22.2492896   -0.00376153902     -22.2466621    0.00725635381      654.497517
4.0048            9.68490717e-05     -39.0067198   -0.00200999604     -22.2929707   -0.00456539239     -22.2904545     0.0113836076      655.428379
4.0064             0.00011726046     -38.8987527   -0.00263944946     -22.3368589   -0.00534632437     -22.3344499     0.0154392407      656.361844
4.008             0.000136995168     -38.7909444   -0.00324577079     -22.3809555   -0.00610438017       -22.37865     0.0194217126      657.297924
4.0096            0.000156055924     -38.6832943   -0.00382907346     -22.4252621   -0.00683961218     -22.4230562     0.0233294932      658.236634
4.0112             0.00017444568     -38.5758014   -0.00438947877     -22.4697802   -0.00755208013       -22.46767      0.027161064      659.177989
4.0128            0.000192167618     -38.4684651   -0.00492711594     -22.5145113   -0.00824185113      -22.512493     0.0309149188      660.122003
4.0144            0.000209225152     -38.3612845   -0.00544212219      -22.559457   -0.00890899977     -22.5575266     0.0345895657      661.068691
4.016             0.000225621928     -38.2542588   -0.00593464278     -22.6046187   -0.00955360817     -22.6027723     0.0381835273      662.018067
4.0176            0.000241361825     -38.1473872   -0.00640483115     -22.6499979    -0.0101757661     -22.6482318     0.0416953428      662.970147
4.0192            0.000256448962     -38.0406689   -0.00685284889     -22.6955964     -0.010775571     -22.6939065     0.0451235687      663.924945
4.0208            0.000270887694     -37.9341031   -0.00727886587     -22.7414155    -0.0113531282      -22.739798     0.0484667803      664.882477
4.0224            0.000284682618     -37.8276891    -0.0076830603     -22.7874569    -0.0119085507     -22.7859079     0.0517235731      665.842758
4.024             0.000297838573     -37.7214259   -0.00806561872     -22.8337221    -0.0124419595     -22.8322378     0.0548925638      666.805804
4.0256            0.000310360643     -37.6153128   -0.00842673614     -22.8802127    -0.0129534837     -22.8787891     0.0579723921       667.77163
4.0272            0.000322254155      -37.509349   -0.00876661604     -22.9269303    -0.0134432602     -22.9255636     0.0609617219      668.740251
4.0288            0.000333524686     -37.4035337   -0.00908547041     -22.9738764    -0.0139114343     -22.9725628     0.0638592428      669.711685
4.0304            0.000344178058     -37.2978662   -0.00938351985     -23.0210527    -0.0143581592     -23.0197882     0.0666636717      670.685946
4.032             0.000354220347     -37.1923456   -0.00966099354     -23.0684608    -0.0147835965     -23.0672416      0.069373754      671.663052
4.0336            0.000363657877     -37.0869712   -0.00991812933     -23.1161022     -0.015187916     -23.1149245     0.0719882655      672.643018
4.0352            0.000372497224     -36.9817421    -0.0101551738     -23.1639786    -0.0155712958     -23.1628385     0.0745060139      673.625861
4.0368            0.000380745217     -36.8766575    -0.0103723821     -23.2120915    -0.0159339226     -23.2109853     0.0769258402      674.611597
4.0384            0.000388408939     -36.7717167    -0.0105700182     -23.2604427    -0.0162759911     -23.2593665     0.0792466206      675.600244
4.04              0.000395495728     -36.6669189     -0.010748355     -23.3090337     -0.016597705     -23.3079838     0.0814672683      676.591817
4.0416            0.000402013177     -36.5622633    -0.0109076738     -23.3578661    -0.0168992759     -23.3568388     0.0835867347      677.586335
4.0432            0.000407969131     -36.4577492    -0.0110482651     -23.4069417    -0.0171809244     -23.4059331     0.0856040118      678.583815
4.0448            0.000413371696     -36.3533756    -0.0111704279      -23.456262    -0.0174428794     -23.4552684     0.0875181336      679.584273
4.0464            0.000418229228     -36.2491419      -0.01127447     -23.5058287    -0.0176853785     -23.5048464     0.0893281778      680.587728
4.048             0.000422550343     -36.1450472    -0.0113607082     -23.5556434    -0.0179086677     -23.5546688     0.0910332682      681.594196
4.0496            0.000426343911     -36.0410908    -0.0114294679     -23.6057079    -0.0181130019     -23.6047372     0.0926325759      682.603697
4.0512            0.000429619054     -35.9372718    -0.0114810832     -23.6560237    -0.0182986443     -23.6550533      0.094125322      683.616247
4.0528            0.000432385153     -35.8335896    -0.0115158971     -23.7065925    -0.0184658669     -23.7056189     0.0955107786      684.631865
4.0544             0.00043465184     -35.7300433    -0.0115342613      -23.757416    -0.0186149503     -23.7564355     0.0967882717      685.650569
4.056             0.000436428998     -35.6266321     -0.011536536     -23.8084959    -0.0187461835      -23.807505     0.0979571826      686.672378
4.0576            0.000437726764     -35.5233552    -0.0115230901     -23.8598338    -0.0188598645      -23.858829     0.0990169501       687.69731
4.0592            0.000438555524     -35.4202119    -0.0114943011     -23.9114314    -0.0189562994     -23.9104092     0.0999670728      688.725384
4.0608            0.000438925912     -35.3172014     -0.011450555     -23.9632905    -0.0190358031     -23.9622474      0.100807111      689.756618
4.0624            0.000438848807     -35.2143229    -0.0113922463     -24.0154126    -0.0190986989     -24.0143452      0.101536688      690.791032
4.064             0.000438335335     -35.1115756    -0.0113197778     -24.0677995    -0.0191453186     -24.0667044      0.102155495      691.828646
4.0656            0.000437396861     -35.0089587    -0.0112335605     -24.1204529    -0.0191760025     -24.1193268      0.102663289      692.869477
4.0672             0.00043604499     -34.9064715    -0.0111340138     -24.1733744    -0.0191910989      -24.172214      0.103059898      693.913546
4.0688            0.000434291564     -34.8041132    -0.0110215651     -24.2265658    -0.0191909649     -24.2253678      0.103345224      694.960873
4.0704            0.000432148657     -34.7018829    -0.0108966497     -24.2800287    -0.0191759653       -24.27879      0.103519242      696.011477
4.072             0.000429628574     -34.5997799    -0.0107597109     -24.3337648    -0.0191464734     -24.3324822      0.103582004      697.065378
4.0736            0.000426743843     -34.4978034    -0.0106111996     -24.3877759    -0.0191028703     -24.3864462      0.103533643      698.122597
4.0752            0.000423507216     -34.3959527    -0.0104515744     -24.4420636    -0.0190455451     -24.4406838      0.103374371      699.183152
4.0768             0.00041993166     -34.2942269    -0.0102813013     -24.4966297    -0.0189748949     -24.4951968      0.103104486      700.247066
4.0784            0.000416030358     -34.1926253    -0.0101008536     -24.5514758    -0.0188913242     -24.5499868       0.10272437      701.314358
4.08              0.000411816696     -34.0911471   -0.00991071161     -24.6066036    -0.0187952453     -24.6050556      0.102234494       702.38505
4.0816            0.000407304265     -33.9897914   -0.00971136266     -24.6620149    -0.0186870779     -24.6604051      0.101635422      703.459161
4.0832             0.00040250685     -33.8885575   -0.00950330075     -24.7177113    -0.0185672488     -24.7160369      0.100927806      704.536713
4.0848            0.000397438426     -33.7874447   -0.00928702641     -24.7736946    -0.0184361922     -24.7719528      0.100112399      705.617728
4.0864            0.000392113153     -33.6864521   -0.00906304642     -24.8299664     -0.018294349     -24.8281546     0.0991900454      706.702226
4.088             0.000386545366     -33.5855789   -0.00883187364     -24.8865284    -0.0181421669      -24.884644     0.0981616941      707.790228
4.0896            0.000380749568     -33.4848244   -0.00859402671     -24.9433824    -0.0179801004     -24.9414229     0.0970283937      708.881757
4.0912            0.000374740424     -33.3841878   -0.00835002978     -25.0005301    -0.0178086101     -24.9984929     0.0957912972      709.976834
4.0928             0.00036853275     -33.2836682   -0.00810041227      -25.057973    -0.0176281626     -25.0558559     0.0944516643      711.075481
4.0944             0.00036214151     -33.1832649   -0.00784570855      -25.115713    -0.0174392308     -25.1135135     0.0930108628       712.17772
4.096             0.000355581798     -33.0829771   -0.00758645761     -25.1737517    -0.0172422929     -25.1714677     0.0914703713      713.283573
4.0976            0.000348868836      -32.982804   -0.00732320279     -25.2320907    -0.0170378324       -25.22972     0.0898317812      714.393062
4.0992             0.00034201796     -32.8827448   -0.00705649136     -25.2907319    -0.0168263383     -25.2882724     0.0880967985      715.506209
4.1008            0.000335044611     -32.7827987   -0.00678687423     -25.3496768    -0.0166083039     -25.3471265     0.0862672459      716.623038
4.1024            0.000327964322     -32.6829649   -0.00651490552     -25.4089272    -0.0163842272     -25.4062842     0.0843450649       717.74357
4.104             0.000320792708     -32.5832426   -0.00624114222     -25.4684847    -0.0161546104     -25.4657472     0.0823323174      718.867829
4.1056            0.000313545455      -32.483631   -0.00596614372      -25.528351    -0.0159199593     -25.5255172     0.0802311875      719.995837
4.1072            0.000306238302     -32.3841294    -0.0056904714     -25.5885278    -0.0156807832      -25.585596     0.0780439834      721.127617
4.1088            0.000298887035     -32.2847369   -0.00541468818     -25.6490167    -0.0154375946     -25.6459853     0.0757731389      722.263192
4.1104            0.000291507467     -32.1854527   -0.00513935807     -25.7098193    -0.0151909085      -25.706687     0.0734212148      723.402587
4.112             0.000284115425      -32.086276   -0.00486504564     -25.7709374    -0.0149412421     -25.7677027     0.0709909004      724.545822
4.1136            0.000276726739     -31.9872059   -0.00459231552     -25.8323726    -0.0146891145     -25.8290343     0.0684850149      725.692924
4.1152             0.00026935722     -31.8882418   -0.00432173191     -25.8941265     -0.014435046     -25.8906834     0.0659065084      726.843913
4.1168            0.000262022648     -31.7893828   -0.00405385795     -25.9562008     -0.014179558     -25.9526518     0.0632584629      727.998815
4.1184            0.000254738754     -31.6906281    -0.0037892552     -26.0185971     -0.013923172     -26.0149412     0.0605440932      729.157654
4.12              0.000247521201     -31.5919768   -0.00352848304     -26.0813171    -0.0136664095     -26.0775534      0.057766748      730.320451
4.1216            0.000240385569     -31.4934282   -0.00327209801     -26.1443623    -0.0134097913     -26.1404901     0.0549299096      731.487233
4.1232            0.000233347332     -31.3949814   -0.00302065321     -26.2077343    -0.0131538369      -26.203753     0.0520371951      732.658022
4.1248            0.000226421841     -31.2966357   -0.00277469761     -26.2714349    -0.0128990642     -26.2673439     0.0490923562      733.832842
4.1264            0.000219624305     -31.1983901   -0.00253477536     -26.3354655    -0.0126459883     -26.3312644      0.046099279      735.011718
4.128             0.000212969766      -31.100244   -0.00230142506     -26.3998278    -0.0123951215     -26.3955164     0.0430619842      736.194673
4.1296             0.00020647308     -31.0021964   -0.00207517907     -26.4645234    -0.0121469724     -26.4601014     0.0399846259      737.381732
4.1312            0.000200148896     -30.9042465   -0.00185656266     -26.5295539    -0.0119020452     -26.5250212     0.0368714916       738.57292
4.1328             0.00019401163     -30.8063936   -0.00164609331     -26.5949208    -0.0116608388     -26.5902775     0.0337270005      739.768259
4.1344            0.000188075443     -30.7086368   -0.00144427982     -26.6606257    -0.0114238467      -26.655872     0.0305557027      740.967775
4.136             0.000182354215     -30.6109752   -0.00125162149     -26.7266702    -0.0111915556     -26.7218063      0.027362277      742.171492
4.1376            0.000176861523     -30.5134081   -0.00106860727     -26.7930558     -0.010964445     -26.7880823     0.0241515296      743.379434
4.1392             0.00017161061     -30.4159346  -0.000895714839     -26.8597841    -0.0107429862     -26.8547014     0.0209283911      744.591626
4.1408            0.000166614366     -30.3185538  -0.000733409684     -26.9268566    -0.0105276417     -26.9216655     0.0176979145      745.808091
4.1424            0.000161885291      -30.221265  -0.000582144152     -26.9942749    -0.0103188641     -26.9889762     0.0144652716      747.028855
4.144             0.000157435475     -30.1240673  -0.000442356474     -27.0620404    -0.0101170954     -27.0566352     0.0112357499      748.253941
4.1456            0.000153276567     -30.0269598  -0.000314469753     -27.1301548   -0.00992276609      -27.124644    0.00801474828      749.483375
4.1472            0.000149419742     -29.9299417  -0.000198890938     -27.1986196   -0.00973629422     -27.1930044    0.00480777328       750.71718
4.1488            0.000145875677     -29.8330123  -9.60097588e-05     -27.2674361   -0.00955808433      -27.261718    0.00162043374       751.95538
4.1504            0.000142654514     -29.7361705  -6.19763929e-06     -27.3366061   -0.00938852664     -27.3307865   -0.00154156429         753.198
4.152             0.000139765834     -29.6394156   7.01934157e-05     -27.4061309   -0.00922799592     -27.4002115   -0.00467242345      754.445065
4.1536            0.000187350719     -29.5427462    0.00014582543     -27.4760326   -0.00906386683     -27.4700153   -0.00777150588      755.696587
4.1552            0.000235105426     -29.4461619   0.000207380133     -27.5462923   -0.00890947897     -27.5401789    -0.0108277213      756.952602
4.1568            0.000280661478      -29.349662   0.000253953052     -27.6169104   -0.00876577189      -27.610703    -0.0138347856      758.213133
4.1584            0.000323967684     -29.2532456   0.000285263843     -27.6878884   -0.00863306589     -27.6815893    -0.0167865915      759.478206
4.16                0.0003649763     -29.1569118   0.000301058577     -27.7592278   -0.00851165948     -27.7528392    -0.0196769783      760.747843
4.1616            0.000403643141     -29.0606598   0.000301111051     -27.8309299   -0.00840182813     -27.8244545    -0.0224997418      762.022069
4.1632             0.00043992769     -28.9644888   0.000285224131     -27.9029963   -0.00830382308     -27.8964366    -0.0252486443      763.300907
4.1648            0.000473793212     -28.8683978    0.00025323111     -27.9754283   -0.00821787006     -27.9687871    -0.0279174259      764.584382
4.1664            0.000505206862     -28.7723861   0.000204997095     -28.0482273   -0.00814416806     -28.0415078    -0.0304998164      765.872516
4.168             0.000534139803     -28.6764527   0.000140420411     -28.1213949   -0.00808288799        -28.1146     -0.032989548      767.165333
4.1696            0.000560567318     -28.5805968   5.94340252e-05     -28.1949325   -0.00803417142     -28.1880655    -0.0353803688      768.462856
4.1712            0.000584468921     -28.4848175  -3.79930085e-05     -28.2688415    -0.0079981292     -28.2619057    -0.0376660574      769.765108
4.1728            0.000605828475      -28.389114  -0.000151854094     -28.3431234   -0.00797484016     -28.3361225    -0.0398404383      771.072113
4.1744            0.000624634302     -28.2934854  -0.000282103621     -28.4177796   -0.00796434971     -28.4107172    -0.0418973979      772.383892
4.176               0.0006408793     -28.1979308  -0.000428655477     -28.4928117    -0.0079666685     -28.4856915    -0.0438309023       773.70047
4.1776            0.000654561049     -28.1024493  -0.000591381558     -28.5682209   -0.00798177099     -28.5610471    -0.0456350155      775.021867
4.1792            0.000665681928     -28.0070402  -0.000770110268      -28.644009   -0.00800959409     -28.6367856    -0.0473039187      776.348107
4.1808            0.000674249222     -27.9117024  -0.000964625013     -28.7201773   -0.00805003574     -28.7129086    -0.0488319312      777.679212
4.1824             0.00068027523     -27.8164352    -0.0011746627     -28.7967273   -0.00810295349     -28.7894177    -0.0502135313      779.015203
4.184              0.00068377737     -27.7212376   -0.00139991223     -28.8736606   -0.00816816313     -28.8663147    -0.0514433801      780.356103
4.1856            0.000684778285     -27.6261088   -0.00164001301     -28.9509788   -0.00824543725     -28.9436012    -0.0525163446      781.701932
4.1872            0.000683305941     -27.5310479   -0.00189455348     -29.0286833   -0.00833450386     -29.0212789    -0.0534275234      783.052713
4.1888            0.000679393726     -27.4360541   -0.00216306961     -29.1067758     -0.008435045     -29.0993495    -0.0541722733      784.408467
4.1904            0.000673080542     -27.3411264   -0.00244504349     -29.1852579   -0.00854669537     -29.1778147    -0.0547462362      785.769214
4.192             0.000664410895      -27.246264   -0.00273990191     -29.2641311   -0.00866904096     -29.2566764    -0.0551453694      787.134975
4.1936            0.000653434978     -27.1514661   -0.00304701493     -29.3433973   -0.00880161776     -29.3359362    -0.0553659746      788.505771
4.1952            0.000640208751     -27.0567317   -0.00336569457     -29.4230579   -0.00894391042      -29.415596    -0.0554047307      789.881622
4.1968            0.000624794014       -26.96206    -0.0036951935     -29.5031149   -0.00909535104     -29.4956577    -0.0552587261      791.262548
4.1984            0.000607258474       -26.86745   -0.00403470377     -29.5835698    -0.0092553179      -29.576123    -0.0549254935       792.64857
4.2               0.000587675801      -26.772901   -0.00438335562     -29.6644246   -0.00942313434      -29.656994    -0.0544030455      794.039708
4.2016            0.000566125682     -26.6784121   -0.00474021636     -29.7456811   -0.00959806762     -29.7382725    -0.0536899117       795.43598
4.2032            0.000542693865     -26.5839824    -0.0051042893     -29.8273411   -0.00977932792     -29.8199606    -0.0527851772      796.837406
